ChannelConfig clockRate=1000000
Nr Channels=1
Information on channel number 0
 Flags=0x2
 Type=0x8
 ID=0x4036014
 LocId=0x253
 SerialNumber=AM8FKGJ2
 Description=AMS EVM Serial Board
 ftHandle=0x0000000000000000
Open channel 0, status=0x0
GPIO write mask=0x2, data=0x0, data&mask=0x0
GPIO write mask=0x2, data=0x0, data&mask=0x0
GPIO write mask=0x2, data=0x2, data&mask=0x2
I2C Tx(0x41) toTx=2 [ 0xf8 0x4 ] status=0x0
I2C Tx(0x41) toTx=1 [ 0xf8 ] status=0x0
I2C Rx(0x41) toRx=1 rxed=1 [ 0x84 ] status=0x0
I2C Tx(0x41) toTx=9 [ 0x8 0x45 0x6 0x0 0x0 0x1 0x0 0x5e 0xc ] status=0x0
I2C Tx(0x41) toTx=1 [ 0x8 ] status=0x0
I2C Rx(0x41) toRx=1 rxed=1 [ 0x0 ] status=0x0
I2C Tx(0x41) toTx=200 [ 0xff 0x0 0xc0 0x1 0x0 0xc1 0x0 0x1 0x0 0xe9 0x0 0x1 0x0 0xed 0x0 0x1 0x0 0xf1 0x0 0x1 0x0 0xf5 0x0 0x1 0x0 0xf9 0x0 0x1 0x0 0xfd 0x0 0x1 0x0 0x1 0x1 0x1 0x0 0x0 0x0 0x0 0x0 0x0 0x0 0x0 0x0 0x5 0x1 0x1 0x0 0x9 0x1 0x1 0x0 0x0 0x0 0x0 0x0 0xd 0x1 0x1 0x0 0x11 0x1 0x1 0x0 0xe7 0x0 0x1 0x0 0xe7 0x0 0x1 0x0 0xe7 0x0 0x1 0x0 0xe9 0x2 0x1 0x0 0x99 0x2 0x1 0x0 0x5d 0x2 0x1 0x0 0xe7 0x0 0x1 0x0 0x95 0x2 0x1 0x0 0x97 0x2 0x1 0x0 0xe7 0x0 0x1 0x0 0xad 0x2 0x1 0x0 0xe7 0x0 0x1 0x0 0xe7 0x0 0x1 0x0 0xe7 0x0 0x1 0x0 0xe7 0x0 0x1 0x0 0xe7 0x0 0x1 0x0 0xe7 0x0 0x1 0x0 0xe7 0x0 0x1 0x0 0xc5 0x2 0x1 0x0 0x21 0x2 0x1 0x0 0x21 0x2 0x1 0x0 0x21 0x2 0x1 0x0 0xc9 0x1 0x1 0x0 0x5 0x2 0x1 0x0 0x74 0x31 0x1 0x0 0x3 0x48 0x85 0x46 0x0 0xf0 0x4c 0xf8 0x0 0x48 0x0 0x47 0x1 0x3 0x1 0x0 0x0 0xc0 0x1 0x0 0x0 0x0 0x0 0x0 0x0 0x0 0x0 0x0 0x72 0xb6 0x14 0x48 0x14 0x49 0x1 ] status=0x0
I2C Tx(0x41) toTx=200 [ 0xff 0x60 0x0 0xf0 0x2 0xf8 0xff 0xf7 0xea 0xff 0x2 0x46 0x11 0x60 0x12 0x1d 0x95 0x45 0xfb 0xd1 0x70 0x47 0x6b 0x46 0xf0 0xb4 0x69 0x46 0xe 0x4a 0x10 0x47 0xfe 0xe7 0xf2 0x20 0xf7 0xe7 0xf3 0x20 0xf5 0xe7 0xf4 0x20 0xf3 0xe7 0xf5 0x20 0xf1 0xe7 0xf6 0x20 0xef 0xe7 0xf7 0x20 0xed 0xe7 0xf8 0x20 0xeb 0xe7 0xfb 0x20 0xe9 0xe7 0xfc 0x20 0xe7 0xe7 0xfe 0x20 0xe5 0xe7 0xff 0x20 0xe3 0xe7 0x0 0xbc 0x1 0x0 0xed 0xa5 0xce 0xde 0xd 0xc 0x0 0x0 0x3 0x46 0xb 0x43 0x9b 0x7 0x3 0xd0 0x9 0xe0 0x8 0xc9 0x12 0x1f 0x8 0xc0 0x4 0x2a 0xfa 0xd2 0x3 0xe0 0xb 0x78 0x3 0x70 0x40 0x1c 0x49 0x1c 0x52 0x1e 0xf9 0xd2 0x70 0x47 0x1c 0xb5 0x9 0x48 0x0 0x90 0x9 0x48 0x1 0x90 0x5 0x46 0x1 0x26 0x0 0x9c 0x5 0xe0 0xe3 0x68 0x7 0xcc 0x33 0x43 0xc 0x3c 0x98 0x47 0x10 0x34 0xac 0x42 0xf7 0xd3 0xff 0xf7 0xa1 0xff 0x0 0x0 0x78 0x31 0x1 0x0 0x78 0x31 0x1 0x0 0xf8 0xb5 0x5 0x46 0xe 0x48 0x0 0x68 0xc0 0x5 0x2c 0x46 0x3 0xd4 0x1c 0x20 0x0 0x78 0xc0 0x7 0xf 0xd1 0x1 0x26 0x32 0x2 ] status=0x0
I2C Tx(0x41) toTx=200 [ 0xff 0x35 0x40 0x9 0x49 0xa 0x4f 0x28 0x46 0xb8 0x47 0x36 0x3 0x9 0x49 0x28 0x46 0x32 0x46 0xb8 0x47 0x8 0x49 0x28 0x46 0x32 0x46 0xb8 0x47 0x20 0x46 0x2 0xf0 0xb6 0xfd 0xf8 0xbd 0xc0 0x46 0x28 0x0 0x0 0x40 0x0 0x0 0xa 0x40 0xc9 0x2e 0x1 0x0 0x0 0x0 0x8 0x40 0x0 0x0 0x9 0x40 0x70 0xb5 0xbf 0x4c 0x20 0x68 0x80 0x7 0x14 0xd5 0xb 0x4d 0xdd 0x4e 0x70 0x5d 0x1 0xf0 0xaa 0xf9 0x2 0x21 0x21 0x60 0x62 0x68 0x8a 0x43 0x62 0x60 0x71 0x55 0xa1 0x68 0xa1 0x60 0x0 0x21 0x1 0x70 0x3 0x20 0xe0 0x60 0x1 0x20 0x0 0x4 0x2 0xf0 0xba 0xfa 0x70 0xbd 0xc0 0x46 0x99 0x66 0x0 0x0 0x80 0xb5 0x5 0x48 0x1 0x68 0x1 0x60 0x0 0x29 0x3 0xd0 0x0 0x21 0x41 0x60 0x1 0xf0 0xc4 0xfd 0x80 0xbd 0xc0 0x46 0x8 0x4 0x0 0x40 0x10 0xb5 0xb 0x48 0x1 0x68 0xca 0x43 0x42 0x60 0x7 0x29 0xf 0xd1 0x9 0x49 0xc6 0x4a 0x51 0x5c 0x8 0x4b 0xd1 0x54 0x12 0x68 0xd1 0x54 0x7 0x21 0x1 0x60 0x40 0x24 0x20 0x46 0x2 0xf0 0x94 0xfa 0x20 0x46 0x2 0xf0 0x99 0xfa 0x10 0xbd 0x0 0x1 0x2 0x40 0x29 ] status=0x0
I2C Tx(0x41) toTx=200 [ 0xff 0x62 0x0 0x0 0x2a 0x62 0x0 0x0 0xe0 0xb5 0xb 0x48 0x1 0x68 0x89 0x7 0xf 0xd5 0x2 0x21 0x1 0x60 0x68 0x46 0xf0 0xf7 0x7c 0xfa 0x0 0x98 0x0 0x7a 0xff 0x28 0x4 0xd0 0x5 0x48 0xb4 0x49 0x1 0x22 0xa 0x54 0x1 0xe0 0x1 0xf0 0x4f 0xff 0x40 0xbf 0x8c 0xbd 0xc0 0x46 0x30 0x11 0x1 0x40 0x90 0x63 0x0 0x0 0x70 0x47 0x70 0x47 0x3 0x48 0x10 0x21 0x1 0x60 0xbf 0xf3 0x4f 0x8f 0xbf 0xf3 0x6f 0x8f 0x70 0x47 0x80 0xe1 0x0 0xe0 0x80 0xb5 0x4 0x48 0x1 0x68 0xca 0x7 0x3 0xd0 0x1 0x60 0x10 0x20 0x2 0xf0 0x61 0xfa 0x80 0xbd 0x54 0x1 0x0 0x40 0x10 0xb5 0xa2 0x48 0xea 0x4c 0x20 0x18 0x2 0xf0 0xa6 0xfd 0x2 0xf0 0x16 0xfd 0x3 0x49 0x62 0x5c 0x2 0x43 0x62 0x54 0x20 0x20 0x2 0xf0 0x4f 0xfa 0x10 0xbd 0x92 0x63 0x0 0x0 0x80 0xb5 0x3 0x20 0x2 0xf0 0x36 0xfd 0x1 0xf0 0x80 0xf8 0x1 0x46 0x10 0x20 0x1 0xf0 0xb4 0xff 0x80 0xbd 0x0 0x0 0x72 0xb6 0x1c 0x48 0xdb 0x4d 0x1c 0x49 0x29 0x50 0xdd 0x48 0x1b 0x49 0x29 0x50 0x1b 0x48 0x1c 0x49 0x29 0x50 0x1c 0x4e 0x1c 0x48 0xa8 0x51 ] status=0x0
I2C Tx(0x41) toTx=200 [ 0xff 0x1 0x20 0x1 0x6 0x69 0x18 0x29 0x60 0xc4 0x7 0x80 0x7 0x0 0x68 0x0 0x28 0x9 0xd0 0x2 0xf0 0xf 0xfa 0x0 0x28 0xfb 0xd5 0x1 0xf0 0x81 0xfb 0x20 0x46 0x2 0xf0 0xf8 0xf9 0x12 0xe0 0x1 0xf0 0x79 0xfa 0x20 0x46 0x2 0xf0 0x12 0xfa 0x6 0x20 0x1 0x21 0xf0 0xf7 0xec 0xfa 0x2 0xf0 0x4 0xfa 0x0 0x28 0xfb 0xd4 0x1 0x20 0x1c 0x22 0x0 0x23 0x1 0x46 0xf0 0xf7 0x28 0xfa 0xa8 0x59 0x80 0x47 0x62 0xb6 0x1 0xf0 0x89 0xf8 0xfc 0xe7 0x40 0x62 0x0 0x0 0x61 0x9 0x1 0x0 0x29 0x8 0x1 0x0 0x38 0x62 0x0 0x0 0x8d 0x6 0x1 0x0 0x34 0x62 0x0 0x0 0x45 0x7 0x1 0x0 0xb0 0xb5 0xf 0x4a 0x3 0x23 0x13 0x60 0x0 0x7 0x0 0xd 0xd 0x4b 0xc0 0x18 0xd 0x4c 0x20 0x60 0xd 0x48 0x5 0x68 0x2 0x23 0x1d 0x43 0x5 0x60 0x61 0x60 0x1 0x21 0xa1 0x60 0xa1 0x68 0x0 0x29 0xfc 0xd1 0xe1 0x68 0x3f 0x25 0x25 0x60 0x0 0x24 0x14 0x60 0x2 0x68 0x9a 0x43 0x2 0x60 0x88 0xb2 0xb0 0xbd 0xc0 0x46 0x44 0x0 0x0 0x40 0x3f 0x0 0x3 0x0 0x0 0x0 0x5 0x40 0x98 0x3 0x1 0x40 0xb0 0xb5 0x39 ] status=0x0
I2C Tx(0x41) toTx=200 [ 0xff 0x4c 0x0 0x2b 0xa 0xd0 0x4 0x9d 0x20 0x61 0x62 0x61 0x5a 0x1e 0xa2 0x61 0x0 0x29 0x7 0xd0 0x21 0x20 0x5 0x43 0x29 0x46 0x9 0xe0 0x1 0x20 0x20 0x60 0x0 0x20 0xb0 0xbd 0xc0 0x1 0x1 0xd5 0x11 0x21 0x0 0xe0 0x1 0x21 0x29 0x43 0x1 0x20 0x20 0x60 0xe1 0x61 0xb0 0xbd 0xc0 0x46 0x2a 0x4a 0x0 0x29 0x9 0xd0 0x0 0x23 0x13 0x61 0x50 0x61 0x48 0x1e 0x90 0x61 0x1 0x20 0x10 0x60 0x49 0x21 0xd1 0x61 0x70 0x47 0x1 0x20 0x10 0x60 0x0 0x20 0x70 0x47 0xc0 0x46 0x21 0x48 0x2 0x21 0xc1 0x61 0xc1 0x69 0x49 0x7 0xfc 0xd4 0x1 0x21 0x1 0x60 0x70 0x47 0xc0 0x46 0x1c 0xb5 0x13 0x46 0xc 0x46 0x2 0x46 0x8 0x20 0x0 0x90 0x0 0x21 0x20 0x46 0xff 0xf7 0xbc 0xff 0x1c 0xbd 0x0 0x0 0x10 0xb5 0x3 0x48 0x4 0x68 0x0 0xf0 0x5 0xf8 0x0 0x1b 0x80 0xb2 0x10 0xbd 0x30 0x4 0x0 0x40 0x3 0x48 0x0 0x68 0x3 0x21 0x1 0x40 0x1 0x20 0x80 0x2 0x88 0x40 0x70 0x47 0x28 0x4 0x0 0x40 0x1 0x49 0x8 0x60 0x70 0x47 0xc0 0x46 0x34 0x4 0x0 0x40 0x9 0x4a 0x0 0x29 0x6 0xd0 0x10 0x62 0x49 0x1e ] status=0x0
I2C Tx(0x41) toTx=200 [ 0xff 0x51 0x62 0xc0 0x1 0x3 0xd5 0x11 0x20 0x2 0xe0 0x0 0x20 0x0 0xe0 0x1 0x20 0x2 0x21 0x11 0x60 0xd0 0x62 0x41 0x1e 0x88 0x41 0x70 0x47 0xc0 0x46 0x0 0x4 0x0 0x40 0xf8 0xb5 0x2 0x20 0xc6 0x43 0xa7 0x4d 0x1e 0x4c 0x0 0x2e 0x7 0xd0 0xf0 0x1c 0xaf 0x19 0xc0 0xb2 0x2 0xf0 0xb4 0xf8 0x38 0x55 0x76 0x1c 0xf5 0xe7 0x1a 0x48 0x28 0x56 0x1a 0x4f 0xe9 0x5d 0x69 0x18 0x19 0x4e 0x89 0x57 0x88 0x42 0x1 0xdc 0x8 0x1a 0x0 0xe0 0x40 0x1a 0x17 0x49 0x69 0x5c 0x88 0x42 0xe 0xdb 0x16 0x48 0x28 0x18 0x16 0x49 0x69 0x18 0x2a 0x19 0x1 0xf0 0x8 0xff 0x0 0x28 0x5 0xd4 0x4 0x46 0x2 0xf0 0x17 0xf9 0x5 0x21 0x8 0x42 0x0 0xd0 0xf8 0xbd 0x10 0x48 0x2c 0x54 0xe8 0x5d 0x28 0x18 0x80 0x5d 0x7 0x49 0x68 0x54 0xd 0x48 0x28 0x5c 0x3 0x21 0x1 0x40 0x2 0x29 0xf1 0xd1 0xb 0x48 0x2c 0x54 0xf8 0xbd 0xc0 0x46 0x78 0x31 0x1 0x0 0x96 0x63 0x0 0x0 0x4c 0x63 0x0 0x0 0x4f 0x63 0x0 0x0 0x93 0x63 0x0 0x0 0x4d 0x63 0x0 0x0 0x48 0x63 0x0 0x0 0x91 0x63 0x0 0x0 0x31 0x63 0x0 0x0 0x4a ] status=0x0
I2C Tx(0x41) toTx=200 [ 0xff 0x63 0x0 0x0 0x49 0x63 0x0 0x0 0xf0 0xb5 0x8b 0xb0 0xf3 0x48 0xf1 0x4f 0x3e 0x5c 0x30 0x46 0x1 0xf0 0x4b 0xfb 0x5 0x46 0x3b 0x48 0x39 0x56 0x30 0x46 0x1 0xf0 0x7a 0xfa 0x4 0x46 0x39 0x48 0x3a 0x5a 0x7 0x46 0x69 0x8 0xa2 0x42 0x3 0xd2 0x1 0x2e 0x3 0xd8 0xf 0x20 0x2 0xe0 0xe6 0x4d 0x44 0xe0 0x3f 0x20 0x10 0x40 0x3 0x90 0x1 0x20 0x1 0x90 0x80 0x7 0x2 0x90 0x0 0x68 0x0 0x28 0x4 0x91 0x13 0xd0 0x3f 0x20 0xc0 0x43 0x1 0x2e 0x0 0xd8 0x30 0x30 0x46 0x18 0x1 0x2a 0x3 0xd1 0x1 0xf0 0xb2 0xfc 0xda 0x48 0xc2 0x5b 0xb0 0xb2 0x40 0x1c 0x90 0x42 0x3 0xd1 0x1 0xf0 0x40 0xfc 0xd6 0x48 0xc2 0x5b 0xd5 0x4d 0x22 0x48 0x29 0x56 0xd6 0x48 0x28 0x5c 0x0 0xf0 0x4a 0xf8 0x6 0x46 0x20 0x48 0x2b 0x58 0x5 0xaf 0x3 0x98 0x39 0x46 0x32 0x46 0x98 0x47 0x1e 0x48 0x28 0x18 0x1e 0x49 0x69 0x5c 0x2 0x9a 0x12 0x68 0x8a 0x42 0x2 0xd0 0x1 0x99 0x9 0x6 0x8 0x43 0x10 0x30 0xc7 0x49 0x6b 0x5c 0x39 0x46 0x32 0x46 0x0 0xf0 0x47 0xff 0x13 0x4f 0xe8 0x5b 0x42 0x1c 0xea 0x53 0x4 0x99 ] status=0x0
I2C Tx(0x41) toTx=200 [ 0xff 0x0 0x2c 0xc 0xd0 0x90 0xb2 0xa0 0x42 0x9 0xd1 0x1 0x24 0xa0 0x3 0xe 0x46 0x2 0xf0 0x92 0xf8 0xe0 0x2 0x2 0xf0 0x6f 0xf8 0x31 0x46 0xea 0x5b 0x90 0xb2 0x88 0x42 0x8 0xd3 0x1 0x24 0x20 0x3 0x2 0xf0 0x66 0xf8 0x60 0x2 0x2 0xf0 0x83 0xf8 0x0 0x20 0xe8 0x53 0xb 0xb0 0xf0 0xbd 0xc0 0x46 0x78 0x31 0x1 0x0 0x2a 0x62 0x0 0x0 0x26 0x62 0x0 0x0 0x3c 0x62 0x0 0x0 0x4 0x44 0x0 0x0 0x28 0x62 0x0 0x0 0x70 0x47 0xb0 0xb5 0x0 0x29 0x12 0xd4 0xcc 0xb2 0x1 0x23 0x99 0x7 0x1 0x28 0xf 0xd8 0x3 0x20 0x10 0x40 0x52 0x0 0x18 0x23 0x13 0x40 0x18 0x18 0x0 0x2c 0x0 0xd0 0x0 0x1d 0x9 0x68 0x0 0x29 0x13 0xd0 0x20 0x30 0xb0 0xbd 0x0 0x20 0xb0 0xbd 0x5 0x28 0xe 0xd0 0x2 0x28 0x2a 0xd1 0x7 0x20 0x10 0x40 0x52 0x0 0x70 0x23 0x13 0x40 0x18 0x18 0x0 0x2c 0x0 0xd0 0x8 0x30 0x9 0x68 0x0 0x29 0x1c 0xd1 0xb0 0xbd 0x7 0x20 0x10 0x40 0x3 0x25 0x45 0x43 0x38 0x20 0x10 0x40 0x6 0x22 0x42 0x43 0x50 0x19 0x9 0x2c 0x24 0xd8 0x1a 0x46 0xa2 0x40 0xc3 0x25 0x2a 0x42 0x3 ] status=0x0
I2C Tx(0x41) toTx=200 [ 0xff 0xd1 0xad 0x0 0x2a 0x42 0x1c 0xd0 0x40 0x1c 0xe2 0x7 0x0 0xd0 0x18 0x30 0x9 0x68 0x0 0x29 0xe4 0xd0 0x19 0x2 0x40 0x18 0x80 0x30 0xb0 0xbd 0x90 0x0 0xe0 0x25 0x5 0x40 0x50 0x7 0x0 0xf 0x28 0x18 0xa2 0x7 0xd2 0xf 0x80 0x18 0xe2 0x7 0xd2 0xe 0x80 0x18 0x9 0x68 0x0 0x29 0xd1 0xd0 0x19 0x2 0x40 0x18 0xb0 0xbd 0x80 0x1c 0xe1 0xe7 0x70 0x47 0x0 0x0 0xbd 0x48 0xbc 0x4a 0x11 0x58 0x8 0x5 0x83 0xf 0x8 0x48 0x10 0x58 0x0 0x3 0x80 0xd 0xd8 0x40 0x2 0xd0 0x9 0x2 0xc9 0x17 0x40 0x18 0x0 0x28 0x0 0xd0 0x40 0x1e 0xc0 0xb2 0x70 0x47 0xc0 0x46 0x78 0x31 0x1 0x0 0x38 0x63 0x0 0x0 0xfe 0xb5 0x1 0x93 0x2 0x90 0x2 0x2a 0x0 0xd8 0x2 0x22 0x8c 0x0 0x88 0x18 0x40 0x1c 0xc3 0xb2 0x8 0x98 0x83 0x42 0x0 0xd3 0x3 0x46 0x2 0x9a 0x15 0x19 0x14 0x59 0xa 0x46 0x99 0x42 0xb 0xd2 0x40 0xcd 0xa6 0x42 0xf 0x46 0x0 0xd8 0x17 0x46 0xa6 0x42 0x0 0xd8 0x26 0x46 0x49 0x1c 0x34 0x46 0x3a 0x46 0xf1 0xe7 0xd5 0xb2 0x0 0x21 0x0 0x2d 0x2e 0xd0 0x85 0x42 0x2c 0xd2 0xa9 0x0 ] status=0x0
I2C Tx(0x41) toTx=200 [ 0xff 0x2 0x98 0x40 0x18 0x46 0x68 0x0 0x1f 0x7 0x68 0xb8 0x1b 0xc2 0x17 0x50 0x40 0x80 0x1a 0xc3 0x3 0xb7 0x42 0x38 0x46 0x0 0xdb 0x30 0x46 0x2 0x9a 0x51 0x58 0x9 0x1a 0x0 0x22 0x18 0x46 0x1 0xf0 0x86 0xff 0xc 0x4a 0x1 0x46 0x40 0x8 0x91 0x42 0xfb 0xdc 0xb7 0x42 0x0 0xdb 0x49 0x42 0xe8 0x3 0x8 0x18 0x1 0x21 0x89 0x3 0x40 0x18 0x0 0x12 0x1 0x99 0x41 0x43 0xc8 0x17 0xc9 0x12 0x81 0x43 0x4e 0x48 0x81 0x42 0x0 0xd3 0x1 0x46 0x88 0xb2 0xfe 0xbd 0xc0 0x46 0xff 0x7f 0x0 0x0 0xf0 0xb5 0x87 0xb0 0x16 0x46 0xf 0x46 0x43 0x49 0x82 0x4c 0x61 0x5c 0x4 0x91 0x3 0x90 0x80 0x0 0x21 0x1d 0x5 0x91 0x8 0x18 0x1 0x21 0x89 0x3 0x40 0x58 0x3f 0x49 0x61 0x5c 0x0 0x25 0x6 0x95 0x3e 0x4a 0xa2 0x5c 0x1 0x92 0x49 0x1c 0x6 0xaa 0x2 0xf0 0x97 0xfa 0x31 0xa 0xf9 0x70 0xbe 0x70 0x3a 0x49 0x88 0x42 0x0 0xd3 0x8 0x46 0x38 0x70 0x2 0x90 0x0 0xa 0x78 0x70 0x1 0x98 0x2 0x28 0x2 0xd3 0x3 0x98 0x0 0x2 0x1 0xe0 0x3 0x98 0x80 0x2 0x5 0x99 0x8 0x18 0x5 0x90 0x7 0x20 0x4 ] status=0x0
I2C Tx(0x41) toTx=200 [ 0xff 0x99 0x1 0x40 0x4 0x91 0x38 0x1d 0x1 0x90 0x2f 0x4e 0x4 0x98 0x85 0x42 0x4e 0xd0 0xc 0x20 0x3 0x99 0x48 0x43 0x20 0x18 0xa2 0x5d 0x91 0x0 0x40 0x18 0x40 0x19 0x2a 0x49 0x47 0x5c 0x67 0x48 0x20 0x5c 0x0 0x28 0xb 0xd0 0x5f 0x48 0x23 0x5a 0x22 0x48 0x20 0x5c 0x0 0x90 0x5 0x98 0x39 0x46 0xff 0xf7 0x56 0xff 0x1 0x46 0xa2 0x5d 0x0 0xe0 0x39 0x46 0x61 0x48 0x26 0x5a 0x8b 0x1b 0x0 0x20 0xb1 0x42 0x0 0xd2 0x3 0x46 0x1e 0x4e 0xa6 0x5d 0x0 0x2e 0x0 0xd0 0xb 0x46 0x5 0x21 0x69 0x43 0x1 0x9e 0x73 0x54 0x1b 0xa 0x76 0x18 0x73 0x70 0xd1 0x19 0xba 0x0 0x5 0x9b 0x9a 0x18 0xbb 0xb2 0x8b 0x42 0x3 0xd8 0x8 0xca 0x18 0x18 0x7f 0x1c 0xf8 0xe7 0xf 0x49 0x88 0x42 0x1 0x46 0x0 0xd3 0xd 0x49 0xf1 0x70 0x9 0xa 0x31 0x71 0x2 0x99 0xa 0x4 0x3 0xd0 0x6 0xaa 0x2 0xf0 0x30 0xfa 0x0 0xe0 0x0 0x20 0xff 0x28 0x0 0xd3 0xff 0x20 0xb0 0x70 0x6d 0x1c 0xac 0xe7 0x7 0xb0 0xf0 0xbd 0x2c 0x62 0x0 0x0 0x78 0x31 0x1 0x0 0x30 0x62 0x0 0x0 0x2b 0x62 0x0 0x0 0xff 0xff 0x0 0x0 ] status=0x0
I2C Tx(0x41) toTx=200 [ 0xff 0x2d 0x62 0x0 0x0 0x4 0x41 0x0 0x0 0x2e 0x62 0x0 0x0 0xf0 0xb5 0x87 0xb0 0x0 0x27 0xf8 0x43 0x5 0x90 0x4 0x90 0x32 0x48 0x33 0x4d 0x28 0x5a 0x29 0x68 0x32 0x4a 0x89 0x58 0xa 0x5 0x92 0xf 0xd0 0x40 0x89 0x4 0x89 0xf 0x88 0x40 0x1 0x21 0xc9 0x43 0x3 0x91 0x80 0xb2 0x2 0x90 0x3e 0x46 0x4 0x2e 0x3a 0xd0 0xb0 0x0 0x28 0x18 0x2a 0x49 0x40 0x58 0x0 0x28 0x2d 0xd0 0xc 0x20 0x70 0x43 0x28 0x18 0x28 0x49 0x6a 0x5c 0x91 0x0 0x40 0x18 0x27 0x49 0x41 0x5c 0x27 0x48 0x28 0x5c 0x0 0x28 0x9 0xd0 0x0 0x20 0x0 0x90 0x30 0x2 0x28 0x18 0x24 0x4b 0xc0 0x18 0x2 0x9b 0xff 0xf7 0xd6 0xfe 0x1 0x46 0x7f 0x1c 0x70 0x0 0x28 0x18 0x20 0x4a 0x81 0x52 0x3 0x98 0x40 0x1c 0x4 0xab 0x9a 0x1c 0x40 0x1c 0x1b 0x88 0x99 0x42 0x13 0x46 0xf9 0xd8 0x3 0x9b 0xd4 0x5a 0xd1 0x52 0x9b 0x1c 0x40 0x1c 0x4 0x28 0x21 0x46 0xf8 0xd3 0x4 0xe0 0x70 0x0 0x28 0x18 0x0 0x21 0x15 0x4a 0x81 0x52 0x76 0x1c 0xc2 0xe7 0x14 0x48 0x0 0x21 0x29 0x52 0x2 0x2f 0x4 0xd0 0x1 0x2f 0x5 0xd1 0x4 0xa9 0x9 ] status=0x0
I2C Tx(0x41) toTx=200 [ 0xff 0x88 0x6 0xe0 0x4 0xa9 0x49 0x88 0x3 0xe0 0x3 0x2f 0x2 0xd3 0x4 0xa9 0x89 0x88 0x29 0x52 0x2a 0x68 0x11 0x52 0x7 0xb0 0xf0 0xbd 0xc0 0x46 0x32 0x62 0x0 0x0 0x78 0x31 0x1 0x0 0x3c 0x63 0x0 0x0 0x44 0x66 0x0 0x0 0x9b 0x66 0x0 0x0 0x54 0x66 0x0 0x0 0x31 0x62 0x0 0x0 0x44 0x62 0x0 0x0 0x90 0x66 0x0 0x0 0x24 0x62 0x0 0x0 0xf0 0xb5 0x91 0xb0 0x12 0x4e 0x20 0x27 0x37 0x60 0xbf 0xf3 0x4f 0x8f 0xbf 0xf3 0x6f 0x8f 0x10 0x48 0x10 0x4a 0x0 0x21 0xa 0x91 0x11 0x54 0xb 0xa8 0xef 0xf7 0x73 0xfe 0xb 0x98 0x4 0x7a 0xd 0x48 0x7 0x60 0x21 0x46 0x10 0x39 0x8 0x25 0x7 0x29 0x35 0xd8 0x49 0x0 0xc0 0x46 0x79 0x44 0x89 0x88 0x49 0x0 0x8f 0x44 0xf 0x0 0x89 0x0 0x55 0x1 0x55 0x1 0x55 0x1 0x53 0x0 0x81 0x0 0x83 0x0 0x80 0xe1 0x0 0xe0 0x90 0x63 0x0 0x0 0x78 0x31 0x1 0x0 0x0 0xe1 0x0 0xe0 0xa5 0x48 0x9 0x21 0x1 0x60 0x1 0xf0 0x4d 0xf8 0x2 0xf0 0xc9 0xf8 0xa3 0x48 0xa3 0x4d 0x28 0x58 0x80 0x47 0xa3 0x48 0x1 0xf0 0x52 0xfe 0x5 0x20 0x0 0x3 0x1 0xf0 ] status=0x0
I2C Tx(0x41) toTx=200 [ 0xff 0x46 0xfe 0xa0 0x48 0x29 0x5a 0x1 0x25 0x0 0x29 0x0 0xd1 0x2d 0xe1 0x3 0x20 0x0 0x2 0xe8 0x30 0x48 0x43 0x9c 0x49 0x1 0xf0 0x61 0xfe 0x25 0xe1 0x20 0x46 0x80 0x38 0x3 0x28 0x19 0xd2 0x20 0x46 0xef 0xf7 0xc3 0xfb 0xd 0xa9 0x0 0x25 0x4d 0x73 0xd 0x73 0xb 0x99 0xd 0x91 0xc 0x99 0xe 0x91 0xf 0x95 0x0 0x28 0x3 0xd0 0x9 0x30 0xc0 0xb2 0xef 0xf7 0x80 0xfe 0x82 0x2c 0x53 0xd0 0x81 0x2c 0x56 0xd1 0xd 0xa8 0xef 0xf7 0x85 0xfd 0x50 0xe0 0xff 0x2c 0x0 0xd0 0x4 0xe1 0x0 0xf0 0x57 0xfc 0x33 0xe0 0xb 0x9a 0xd0 0x5d 0x11 0x46 0x20 0x31 0x9 0x92 0x60 0x32 0x17 0x28 0x4b 0xd0 0x16 0x28 0xa 0x9e 0x80 0x4f 0x0 0xd0 0xf2 0xe0 0x88 0x79 0x2 0x25 0x5 0x28 0x0 0xd9 0xee 0xe0 0xc8 0x79 0x3f 0x28 0x0 0xd9 0xea 0xe0 0x88 0x7a 0x7 0x23 0x18 0x40 0x4 0x28 0x0 0xd9 0xe4 0xe0 0x48 0x7b 0x2 0x28 0x0 0xd9 0xe0 0xe0 0x7 0x93 0x8 0x92 0x88 0x79 0xd 0x46 0x89 0x7a 0x1 0xf0 0x2b 0xf8 0x76 0x49 0x88 0x42 0x0 0xd8 0xfc 0xe0 0x29 0x46 0x4 0x25 0xd2 0xe0 0x16 0x20 0x0 0xe0 0x17 ] status=0x0
I2C Tx(0x41) toTx=200 [ 0xff 0x20 0xb 0xa9 0x0 0xf0 0x9a 0xfa 0x5 0x46 0xcb 0xe0 0x37 0x60 0xbf 0xf3 0x4f 0x8f 0xbf 0xf3 0x6f 0x8f 0x4 0x21 0x8 0x29 0x6 0xd0 0xb 0x9a 0x0 0x23 0x53 0x54 0xc 0x9a 0x53 0x54 0x49 0x1c 0xf6 0xe7 0x7 0x60 0x0 0x25 0xb9 0xe0 0xd 0xa8 0xef 0xf7 0x41 0xfd 0x1 0x46 0x4 0xe0 0xd 0xa8 0xef 0xf7 0xd2 0xfc 0x1 0x46 0x4 0x25 0x28 0x46 0xaf 0xe0 0x8 0x92 0x8 0x46 0xc9 0x79 0x2 0x79 0x1 0x23 0x7 0x93 0x1a 0x40 0x5d 0x4b 0x57 0x4f 0xfa 0x54 0x8 0xd0 0x82 0x78 0x7 0x23 0x1a 0x40 0x5a 0x4d 0x7a 0x55 0xc2 0x78 0x1a 0x40 0x59 0x4b 0xfa 0x54 0x42 0x79 0x7f 0x23 0x1a 0x40 0x58 0x4d 0x7a 0x55 0x82 0x79 0x1a 0x40 0x57 0x4b 0xfa 0x54 0x7b 0x19 0x5a 0x70 0x1f 0x22 0x11 0x40 0x9d 0x78 0xe0 0x26 0x2e 0x40 0x71 0x18 0x99 0x70 0x1 0x7a 0x52 0x4d 0x79 0x55 0x41 0x7a 0xf 0x25 0xd 0x40 0xd9 0x78 0xf0 0x26 0x31 0x40 0x49 0x19 0xd9 0x70 0x41 0x7a 0x31 0x40 0x49 0x19 0xd9 0x70 0xc1 0x7b 0x9 0x2 0x4b 0x4b 0xf9 0x52 0x85 0x7b 0x4d 0x19 0x4a 0x49 0x7e 0x58 0x36 0x5 0xb6 0xf 0xb5 0x40 ] status=0x0
I2C Tx(0x41) toTx=200 [ 0xff 0xfd 0x52 0x3b 0x68 0x47 0x4e 0x9f 0x19 0xbd 0x80 0x39 0x4f 0x1 0x46 0x5 0x7c 0xbd 0x55 0x9d 0x55 0x8 0x98 0x3 0x7c 0xfb 0x4d 0x7b 0x55 0x7b 0x19 0x45 0x7c 0x5d 0x70 0x85 0x7c 0xfd 0x4e 0xbd 0x55 0xc5 0x7c 0xdd 0x70 0x5 0x7d 0x1d 0x71 0x45 0x7d 0x5d 0x71 0x85 0x7d 0xfa 0x4e 0xbd 0x55 0xc5 0x7d 0xdd 0x71 0x5 0x7e 0x1d 0x72 0x3 0x78 0xf7 0x4d 0x7b 0x55 0xd2 0x43 0xf7 0x4b 0x9 0x98 0x0 0x2a 0xb 0xd0 0x85 0x18 0x61 0x26 0xae 0x5d 0x60 0x27 0xed 0x5d 0xeb 0x4f 0x36 0x2 0x75 0x19 0xbe 0x18 0xf5 0x52 0x92 0x1c 0xf1 0xe7 0x4a 0x7d 0x7 0x98 0x2 0x40 0xee 0x4b 0xfd 0x5a 0x85 0x43 0xaa 0x18 0xfa 0x52 0x2 0x25 0xaa 0x43 0x8d 0x7d 0xed 0x7 0xad 0xf 0x52 0x19 0xfa 0x52 0x4a 0x7c 0xe9 0x4b 0xfd 0x58 0x3 0x26 0xb6 0x7 0xb5 0x43 0x92 0x7 0x52 0x19 0xfa 0x50 0x8a 0x7c 0xe 0x46 0xde 0x49 0x7b 0x58 0xc5 0x5 0xab 0x43 0xd2 0x7 0x12 0xa 0xd2 0x18 0x7a 0x50 0x3 0x6 0x9a 0x43 0x35 0x46 0xf3 0x7c 0xdb 0x7 0xdb 0x9 0x9a 0x18 0x7a 0x50 0x40 0x6 0x82 0x43 0x30 0x7d 0xc0 0x7 0x80 ] status=0x0
I2C Tx(0x41) toTx=200 [ 0xff 0x9 0x10 0x18 0x78 0x50 0x0 0xf0 0xbc 0xfe 0x31 0x46 0xa 0x9e 0x35 0x46 0x0 0xe0 0x9 0x25 0xe 0x70 0x20 0x46 0x29 0x46 0x1 0xf0 0x88 0xfa 0x11 0xb0 0xf0 0xbd 0x84 0x3 0x1 0x40 0x38 0x62 0x0 0x0 0x78 0x31 0x1 0x0 0x10 0x51 0x0 0x0 0xc 0x63 0x0 0x0 0xb8 0xb 0x0 0x0 0x4 0x1e 0x0 0x0 0x33 0x63 0x0 0x0 0x2f 0x63 0x0 0x0 0x30 0x63 0x0 0x0 0x48 0x63 0x0 0x0 0x31 0x63 0x0 0x0 0x4d 0x63 0x0 0x0 0x32 0x62 0x0 0x0 0x3c 0x63 0x0 0x0 0x2e 0x62 0x0 0x0 0x28 0x7c 0x3 0x22 0x10 0x40 0x29 0x46 0x5 0x25 0x3 0x28 0xd1 0xd0 0x8 0x7c 0x6 0x91 0xc 0x21 0x1 0x40 0xc 0x29 0x6 0x99 0xca 0xd0 0x9 0x98 0x40 0x30 0x9 0x90 0x38 0x68 0xd 0x46 0xb9 0x49 0x46 0x50 0xe9 0x78 0x9 0x2 0x16 0x46 0xad 0x4a 0xb9 0x52 0xab 0x78 0xc9 0x18 0xb9 0x52 0xa9 0x79 0xb4 0x4a 0xb9 0x54 0x81 0x54 0xab 0x4b 0xf8 0x58 0x5 0x96 0x31 0x5 0x88 0x43 0xb9 0x5c 0x2 0x29 0xa 0x46 0x0 0xd3 0x2 0x22 0x12 0x5 0x2 0x43 0xfa 0x50 0x6 0x9d 0x68 0x79 0x2a 0x79 0x0 0x2 0x80 0x18 ] status=0x0
I2C Tx(0x41) toTx=200 [ 0xff 0x80 0xb2 0x1 0xf0 0xe8 0xf9 0xa9 0x49 0x78 0x50 0xe9 0x79 0x3f 0x20 0x4 0x90 0x1 0x40 0xa7 0x4a 0xb9 0x54 0x2a 0x7a 0x11 0x46 0x7 0x98 0x1 0x40 0x9 0x23 0x18 0x3 0x48 0x43 0x38 0x26 0x16 0x40 0xb7 0x1 0x92 0x6 0xd2 0xd 0xba 0x18 0x12 0x18 0xdb 0x3 0x73 0x43 0xd2 0x18 0x51 0x18 0x9e 0x4a 0x90 0x4b 0x99 0x50 0x69 0x7a 0x9d 0x48 0x8e 0x4a 0x12 0x5a 0x5 0x9b 0x1b 0x2 0xff 0x33 0x13 0x40 0x89 0x2 0xc9 0x18 0x8a 0x4a 0x11 0x52 0xa9 0x7a 0x4 0x98 0x1 0x40 0x97 0x48 0x11 0x54 0x12 0x68 0x11 0x54 0x0 0xf0 0xea 0xff 0xe8 0x7a 0x1 0x26 0x1 0x96 0x30 0x40 0x82 0x49 0xa 0x68 0x4 0x92 0x92 0x49 0x53 0x18 0x3 0x93 0x98 0x70 0x28 0x7b 0x30 0x40 0x50 0x54 0x68 0x7b 0x8f 0x49 0x7c 0x4a 0x50 0x54 0x28 0x7c 0xf 0x27 0x38 0x40 0x81 0x49 0x50 0x54 0x68 0x7c 0x78 0x49 0x7b 0x4a 0x8b 0x58 0x2 0x93 0x7 0x9e 0xb1 0x3 0x8b 0x43 0x40 0x7 0xc0 0xb 0xc0 0x18 0x73 0x49 0x88 0x50 0x71 0x4 0x88 0x43 0x6b 0x7c 0x5b 0x3 0xb 0x40 0x19 0x18 0x7 0x91 0x6f 0x48 0x81 0x50 0xa9 0x7c 0x80 ] status=0x0
I2C Tx(0x41) toTx=200 [ 0xff 0x48 0x6d 0x4a 0x16 0x5a 0x5 0x9a 0xd2 0x1 0x96 0x43 0x89 0x7 0xc9 0xd 0x89 0x19 0x69 0x4a 0x11 0x52 0x7c 0x4a 0x11 0x40 0xaa 0x7c 0xd2 0x9 0x92 0x2 0x51 0x18 0x65 0x4a 0x11 0x52 0x7f 0x22 0x91 0x43 0xee 0x7c 0x16 0x40 0x89 0x19 0x61 0x4a 0x11 0x52 0xfa 0x2 0x91 0x43 0x2a 0x7d 0x12 0x7 0x52 0xc 0x89 0x18 0x5d 0x4a 0x11 0x52 0x71 0x4a 0xa 0x40 0x29 0x7d 0x9 0x9 0xc9 0x3 0x89 0x18 0x59 0x4a 0x11 0x52 0x58 0x49 0x8 0x18 0x29 0x7d 0x42 0x88 0x1 0x9b 0x9a 0x43 0x89 0x6 0xc9 0xf 0x51 0x18 0x41 0x80 0xe8 0x7d 0x5c 0x4f 0x52 0x49 0xc9 0x59 0x67 0x4a 0x11 0x40 0x80 0x7 0x80 0xd 0x42 0x18 0x4f 0x4b 0xda 0x51 0xaa 0x7d 0x89 0x18 0x8 0x18 0x4c 0x49 0xc8 0x51 0x62 0x49 0x1 0x40 0x68 0x7e 0x80 0x7 0x80 0x8 0x40 0x18 0x48 0x49 0xc8 0x51 0x29 0x7e 0x9 0x5 0x41 0x18 0x46 0x48 0xc1 0x51 0x5d 0x48 0x8 0x40 0x9 0x9d 0x69 0x78 0x8a 0x7 0x11 0xb 0x41 0x18 0xd9 0x51 0x29 0x78 0x42 0x4b 0x40 0x4d 0xee 0x5a 0x2 0x9b 0x1d 0x5 0xad 0xf 0xee 0x40 0x3d 0x4d 0x3e 0x4b 0xee 0x52 ] status=0x0
I2C Tx(0x41) toTx=200 [ 0xff 0x1d 0x46 0x92 0xd 0x51 0x18 0x89 0x2 0x8 0x18 0xf6 0x49 0xc8 0x51 0xf5 0x4f 0x9 0x98 0x80 0x78 0x5 0x9b 0x18 0x40 0x86 0x40 0x7e 0x53 0x99 0x2 0x7 0x9a 0x8a 0x43 0x80 0x2 0x80 0x18 0xf6 0x4d 0x78 0x51 0x4 0x98 0xf3 0x49 0x46 0x52 0x9 0x9e 0xf0 0x78 0x79 0x59 0x1a 0x3 0x91 0x43 0x80 0x7 0x80 0xc 0x40 0x18 0x78 0x51 0x41 0x49 0x8 0x40 0x71 0x79 0x89 0x7 0x89 0xd 0xa 0x18 0x7a 0x51 0x32 0x79 0x80 0x18 0x40 0x18 0x78 0x51 0xf0 0x79 0xf7 0x4d 0x79 0x5b 0x38 0x4a 0x52 0x1c 0xa 0x40 0x80 0x7 0x80 0xd 0x81 0x18 0x79 0x53 0xb1 0x79 0x51 0x18 0x8 0x18 0x78 0x53 0x30 0x7c 0x18 0x40 0xf4 0x49 0x78 0x54 0x4 0x9d 0x68 0x54 0x70 0x7c 0x18 0x40 0x3 0x9a 0xd0 0x70 0xb0 0x7c 0xf1 0x4a 0xb8 0x54 0x6d 0x18 0x28 0x71 0xf0 0x7c 0xef 0x49 0x78 0x54 0xa8 0x70 0x8 0x9b 0x18 0x7b 0xee 0x49 0x78 0x54 0x58 0x7a 0x0 0x2 0xed 0x49 0x78 0x52 0x1a 0x7a 0x80 0x18 0x78 0x52 0xd8 0x7a 0x0 0x2 0xea 0x49 0x78 0x52 0x9a 0x7a 0x80 0x18 0x78 0x52 0x1f 0x20 0xc0 0x43 0x18 0x30 0xe7 0x49 0xa ] status=0x0
I2C Tx(0x41) toTx=200 [ 0xff 0x9e 0x0 0x28 0x6 0xd0 0x3a 0x18 0x8 0x9b 0x1b 0x18 0x1b 0x7a 0x53 0x54 0x40 0x1c 0xf6 0xe7 0xff 0xf7 0x6f 0xfb 0x1d 0x49 0x78 0x54 0xe8 0x70 0x35 0x46 0x6 0x99 0x69 0xe6 0xc0 0x46 0x96 0x63 0x0 0x0 0x78 0x31 0x1 0x0 0xc 0x63 0x0 0x0 0x32 0x62 0x0 0x0 0x3c 0x63 0x0 0x0 0x98 0x63 0x0 0x0 0x9c 0x63 0x0 0x0 0x32 0x63 0x0 0x0 0x2e 0x63 0x0 0x0 0x42 0x63 0x0 0x0 0x38 0x63 0x0 0x0 0x84 0x66 0x0 0x0 0x2b 0x62 0x0 0x0 0x34 0x63 0x0 0x0 0x4e 0x63 0x0 0x0 0x8 0x63 0x0 0x0 0x40 0x63 0x0 0x0 0x2c 0x62 0x0 0x0 0x98 0x66 0x0 0x0 0x4f 0x63 0x0 0x0 0x44 0x63 0x0 0x0 0xff 0xfb 0xff 0xff 0xff 0x7f 0x0 0x0 0x0 0xfc 0xff 0xff 0xff 0xff 0xf 0xc0 0xff 0x3 0xf0 0xff 0x30 0x62 0x0 0x0 0xfe 0xb5 0x5 0x46 0x4e 0x68 0x30 0x46 0x20 0x30 0x30 0x21 0x2 0x90 0xff 0xf7 0x93 0xf9 0x34 0x46 0x40 0x34 0x37 0x46 0x60 0x37 0xef 0xf7 0xf7 0xfc 0x0 0x28 0xfb 0xd0 0x2 0x99 0xd 0x70 0xbe 0x20 0x48 0x70 0x17 0x2d 0x13 0xd0 0x16 0x2d 0x0 0xd0 0x84 0xe0 0x1 0x94 ] status=0x0
I2C Tx(0x41) toTx=200 [ 0xff 0xa4 0x49 0xe6 0x48 0x42 0x58 0xa3 0x49 0x43 0x5c 0xa3 0x4d 0x46 0x19 0x76 0x78 0x2 0x9c 0xe6 0x70 0x45 0x5d 0xa5 0x70 0x4 0x2b 0x77 0xd8 0x8 0x25 0x76 0xe0 0x8c 0x49 0xde 0x48 0x41 0x5c 0x2 0x9c 0xa1 0x70 0x8b 0x49 0x41 0x5c 0xe1 0x70 0x8b 0x49 0x41 0x5c 0x21 0x71 0x8a 0x49 0x42 0x5c 0x62 0x71 0x8a 0x4a 0x82 0x5c 0xa2 0x71 0x41 0x18 0x8b 0x78 0x1f 0x22 0x1 0x92 0x13 0x40 0xe3 0x71 0xc9 0x78 0x61 0x72 0x85 0x49 0x41 0x5c 0x21 0x72 0x85 0x4b 0xc5 0x5a 0x85 0x4a 0x81 0x58 0x9 0x5 0x89 0xf 0xcd 0x40 0xa5 0x73 0xc1 0x5a 0x83 0x58 0x1b 0x5 0x9b 0xf 0x8 0x33 0xd9 0x40 0xe1 0x73 0x7f 0x49 0x41 0x5c 0x21 0x74 0xb6 0x49 0x43 0x5c 0x3b 0x74 0x43 0x18 0x59 0x78 0x79 0x74 0x7c 0x49 0x41 0x5c 0xb9 0x74 0xd9 0x78 0xf9 0x74 0x19 0x79 0x39 0x75 0x59 0x79 0x79 0x75 0x78 0x49 0x41 0x5c 0xb9 0x75 0xd9 0x79 0xf9 0x75 0x19 0x7a 0x39 0x76 0x76 0x49 0x41 0x5c 0x39 0x70 0x1 0x99 0xca 0x43 0x74 0x4b 0x0 0x2a 0xa 0xd0 0xb1 0x18 0x85 0x18 0xef 0x5c 0x60 0x24 0xf 0x55 0xec 0x18 0x64 0x78 0x61 ] status=0x0
I2C Tx(0x41) toTx=200 [ 0xff 0x25 0x4c 0x55 0x92 0x1c 0xf2 0xe7 0x6e 0x49 0x43 0x5c 0x1 0x22 0x13 0x40 0x2 0x9c 0x63 0x75 0x41 0x5c 0x89 0x7 0xc9 0xf 0xa1 0x75 0x6a 0x49 0x41 0x58 0x89 0xf 0x61 0x74 0x61 0x4b 0xc1 0x58 0x9 0x2 0xc9 0xf 0xa1 0x74 0xc1 0x18 0xc9 0x78 0x11 0x40 0xe1 0x74 0xc0 0x58 0x80 0x1 0xc0 0xf 0x20 0x75 0x0 0x20 0xfe 0xbd 0x9 0x20 0xfe 0xbd 0xc 0x25 0x2 0x2b 0x0 0xd8 0x2 0x25 0x6a 0x43 0x92 0xa 0x61 0x4b 0x9a 0x42 0x0 0xd3 0x1a 0x46 0x13 0xa 0x2 0x9c 0x63 0x71 0x22 0x71 0x41 0x5c 0xa1 0x71 0x5d 0x49 0x41 0x5c 0xe1 0x71 0x5c 0x49 0x41 0x58 0x7 0x22 0xa 0x40 0xc9 0x8 0x38 0x23 0xb 0x40 0x99 0x18 0x21 0x72 0x59 0x49 0x42 0x5a 0x92 0xa 0x62 0x72 0x58 0x4a 0x82 0x5c 0xa2 0x72 0x3 0x68 0x57 0x4d 0x59 0x19 0x0 0x91 0x8e 0x78 0xe6 0x72 0x5b 0x5d 0x23 0x73 0x54 0x4b 0xc3 0x5c 0x63 0x73 0x47 0x4b 0xc3 0x5c 0x23 0x74 0x40 0x4b 0xc5 0x58 0x6e 0xb 0x70 0x21 0x31 0x40 0xed 0x3 0x6d 0xf 0x69 0x18 0x61 0x74 0x4e 0x4d 0x42 0x5b 0xd6 0x8 0x80 0x21 0x31 0x40 0xd2 0x5 0x92 0xf ] status=0x0
I2C Tx(0x41) toTx=200 [ 0xff 0x51 0x18 0xa1 0x74 0x41 0x5d 0x7f 0x22 0xa 0x40 0xe2 0x74 0x41 0x5b 0xc9 0xa 0x42 0x19 0x52 0x88 0xd2 0x7 0x92 0xe 0x51 0x18 0x21 0x75 0x38 0x4e 0x81 0x19 0x49 0x78 0x3 0x25 0x29 0x40 0xe1 0x75 0x81 0x59 0xa1 0x75 0x81 0x59 0x89 0x0 0x89 0xf 0x61 0x76 0x81 0x59 0x9 0xd 0x21 0x76 0x81 0x59 0x9 0x3 0x89 0xf 0x1 0x9a 0x51 0x70 0x81 0x59 0x89 0xa 0x11 0x70 0xc1 0x58 0x9 0x5 0x89 0xf 0x91 0x70 0xc1 0x58 0x89 0x4 0x89 0xf 0xd1 0x70 0xc1 0x18 0x49 0x78 0x29 0x40 0x51 0x71 0xc1 0x58 0x11 0x71 0x2d 0x4b 0xc1 0x18 0x49 0x78 0x29 0x40 0xd1 0x71 0xc1 0x5c 0x91 0x71 0x2e 0x49 0x41 0x5c 0x11 0x74 0x0 0x99 0xc9 0x78 0x51 0x74 0x2c 0x49 0x41 0x5c 0x91 0x74 0x2c 0x49 0x41 0x5c 0xd1 0x74 0x2b 0x49 0x41 0x5c 0x39 0x73 0x2b 0x49 0x42 0x18 0x52 0x78 0x7a 0x72 0x41 0x5c 0x39 0x72 0x29 0x49 0x42 0x18 0x52 0x78 0xfa 0x72 0x41 0x5c 0xb9 0x72 0x1f 0x21 0xc9 0x43 0x18 0x31 0x25 0x4a 0x0 0x29 0x0 0xd1 0x5e 0xe7 0x7b 0x18 0x44 0x18 0xa4 0x5c 0x1c 0x72 0x49 0x1c 0xf6 0xe7 0x2f 0x63 0x0 ] status=0x0
I2C Tx(0x41) toTx=200 [ 0xff 0x0 0x78 0x31 0x1 0x0 0x30 0x63 0x0 0x0 0x33 0x63 0x0 0x0 0x48 0x63 0x0 0x0 0x31 0x63 0x0 0x0 0x4d 0x63 0x0 0x0 0x32 0x62 0x0 0x0 0x3c 0x63 0x0 0x0 0x2e 0x62 0x0 0x0 0x98 0x63 0x0 0x0 0x9c 0x63 0x0 0x0 0x32 0x63 0x0 0x0 0x2e 0x63 0x0 0x0 0x42 0x63 0x0 0x0 0x38 0x63 0x0 0x0 0x34 0x63 0x0 0x0 0x2b 0x62 0x0 0x0 0xc 0x63 0x0 0x0 0xff 0xff 0x0 0x0 0x4e 0x63 0x0 0x0 0x8 0x63 0x0 0x0 0x40 0x63 0x0 0x0 0x2c 0x62 0x0 0x0 0x98 0x66 0x0 0x0 0x4f 0x63 0x0 0x0 0x44 0x63 0x0 0x0 0x2d 0x62 0x0 0x0 0x31 0x62 0x0 0x0 0x2f 0x62 0x0 0x0 0xa6 0x63 0x0 0x0 0xa2 0x63 0x0 0x0 0xa4 0x63 0x0 0x0 0xb0 0x63 0x0 0x0 0xf8 0xb5 0x1 0xf0 0xab 0xf9 0x5 0x46 0x1 0xf0 0xb0 0xf9 0x4 0x46 0xcd 0x48 0x0 0x27 0x7 0x60 0xc9 0x48 0xc6 0x49 0x8 0x18 0x1 0xf0 0x5 0xfd 0x1 0xf0 0x1d 0xfc 0x0 0xf0 0x9f 0xfe 0x1 0xf0 0x87 0xfa 0x15 0x48 0x7 0x60 0xa8 0x7 0x6 0xd4 0xef 0xf7 0x77 0xfb 0xff 0xf7 0x9 0xf8 0x12 0x48 0x9 0x21 0x1 0x60 0x11 0x48 ] status=0x0
I2C Tx(0x41) toTx=200 [ 0xff 0x7 0x60 0xc5 0x48 0x11 0x4e 0xb0 0x47 0xc8 0x48 0xb0 0x47 0xca 0x48 0xb0 0x47 0xfe 0x43 0x30 0x46 0x1 0xf0 0x71 0xf9 0x30 0x46 0x1 0xf0 0x76 0xf9 0x4 0x20 0x5 0x40 0x1 0xd0 0xb 0x20 0x0 0xe0 0xc 0x20 0x0 0x2d 0x0 0xd1 0xa 0x27 0x61 0x7 0x0 0xd5 0x38 0x46 0xf8 0xbd 0xc0 0x46 0x96 0x63 0x0 0x0 0x4 0x4 0x0 0x40 0x84 0x3 0x1 0x40 0x4 0x1 0x2 0x40 0x89 0x26 0x1 0x0 0x10 0xb5 0x0 0xf0 0x61 0xf8 0x3 0x20 0xc4 0x2 0x1 0xf0 0x5f 0xf9 0x20 0x40 0xa0 0x42 0x1 0xd1 0xff 0xf7 0x6e 0xf8 0x1 0x20 0x80 0x7 0x0 0x68 0x0 0x28 0x0 0xd0 0x10 0xbd 0x9d 0x48 0xde 0x49 0x8 0x5c 0x0 0x28 0xf9 0xd0 0xff 0xf7 0xd5 0xfa 0x10 0xbd 0x78 0x31 0x1 0x0 0xf8 0xb5 0x0 0x92 0x7 0x24 0x1c 0x40 0x1d 0x7 0xed 0xf 0x6e 0x0 0xf6 0x1c 0x66 0x43 0xdf 0x6 0xff 0xf 0x9b 0x6 0xda 0xf 0xd3 0x19 0x5b 0x0 0xf3 0x18 0x0 0x9e 0x73 0x43 0xc0 0x18 0x0 0x2f 0x4 0xd0 0xb 0x78 0x3 0x70 0x4b 0x78 0x43 0x70 0x80 0x1c 0x0 0x2a 0x4 0xd0 0x8a 0x78 0x2 0x70 0xca 0x78 0x42 0x70 0x80 ] status=0x0
I2C Tx(0x41) toTx=200 [ 0xff 0x1c 0xc9 0x1d 0x0 0x2c 0x13 0xd0 0xca 0x1e 0x13 0x78 0x3 0x70 0x52 0x78 0x42 0x70 0x4a 0x1e 0x12 0x78 0x82 0x70 0x0 0x2d 0x1 0xd1 0xc0 0x1c 0x4 0xe0 0xa 0x78 0xc2 0x70 0x4a 0x78 0x2 0x71 0x40 0x1d 0x49 0x1d 0x64 0x1e 0xe9 0xe7 0xf8 0xbd 0x0 0x0 0x1 0x46 0x5 0x48 0xbb 0x4a 0x10 0x18 0x1 0x22 0x93 0x7 0x1b 0x68 0x8b 0x42 0x1 0xd0 0x11 0x6 0x8 0x43 0x70 0x47 0x4 0x44 0x0 0x0 0x80 0xb5 0x1 0x20 0x80 0x7 0x0 0x68 0x0 0x28 0x2 0xd0 0x0 0xf0 0xa 0xf9 0x80 0xbd 0x0 0xf0 0x1 0xf8 0x80 0xbd 0xfe 0xb5 0x1 0xf0 0xf3 0xf8 0x4 0x46 0x46 0x7 0x1 0xf0 0xf7 0xf8 0x5 0x46 0x0 0x2e 0x2 0xd5 0x68 0x7 0x0 0xd5 0x95 0xe0 0xe0 0x7 0x0 0xd0 0x8b 0xe0 0x1 0x27 0x20 0x4 0xc 0xd5 0xf8 0x3 0x1 0xf0 0xd0 0xf8 0xa4 0x48 0x0 0x68 0xa2 0x49 0x40 0x5c 0x0 0x28 0x3 0xd1 0x0 0xf0 0x2a 0xfe 0x61 0x48 0x7 0x60 0x3e 0x2 0xe0 0x3 0x18 0xd5 0x38 0x4 0x1 0xf0 0xc0 0xf8 0x9c 0x4a 0x10 0x68 0x9a 0x49 0x40 0x5c 0x0 0x28 0x4 0xd0 0x0 0xf0 0x1a 0xfe 0xf6 0x4a 0x59 0x48 ] status=0x0
I2C Tx(0x41) toTx=200 [ 0xff 0x7 0x60 0x34 0x42 0x8 0xd0 0xf6 0x48 0x10 0x5a 0x0 0x28 0x4 0xd1 0x2 0x20 0x1 0xf0 0xd4 0xf8 0x0 0xf0 0xa4 0xfd 0xe0 0x6 0x24 0xd5 0x34 0x42 0x22 0xd0 0x10 0x36 0x30 0x46 0x1 0xf0 0xa2 0xf8 0x4f 0x48 0xeb 0x4a 0xff 0x21 0x11 0x54 0x12 0x68 0x11 0x54 0xfe 0xf7 0x68 0xff 0x4c 0x48 0xe7 0x49 0xe 0x18 0x30 0x46 0x1 0xf0 0x36 0xf9 0x4a 0x48 0xe4 0x49 0x8 0x5c 0x31 0x46 0x1 0xf0 0x5a 0xf9 0xe6 0x48 0xe1 0x49 0x8 0x18 0x1 0xf0 0x35 0xfb 0x1 0xf0 0x6f 0xfb 0x45 0x48 0x7 0x60 0x0 0xf0 0xfd 0xfc 0x60 0x6 0x4 0xd5 0x40 0x20 0x1 0xf0 0x7e 0xf8 0x0 0xf0 0xf6 0xfc 0xa0 0x6 0x60 0xd5 0x60 0x4 0x5e 0xd5 0xbe 0x3 0x35 0x42 0x5b 0xd0 0x30 0x46 0x20 0x30 0x1 0xf0 0x71 0xf8 0x30 0x46 0x1 0xf0 0x76 0xf8 0x35 0x48 0xd1 0x4e 0x35 0x5c 0x38 0x48 0x0 0x78 0x38 0x49 0x1 0xf0 0xa2 0xf8 0x37 0x48 0x7 0x21 0x1 0x60 0x41 0x60 0x30 0x68 0x36 0x49 0x41 0x18 0x0 0x91 0xdf 0x49 0x42 0x18 0x34 0x49 0x43 0x18 0x34 0x48 0x2 0x95 0x29 0x46 0x34 0x4d 0xa8 0x47 0xc4 0x48 0x32 0x5c 0x33 ] status=0x0
I2C Tx(0x41) toTx=200 [ 0xff 0x48 0x35 0x46 0x30 0x18 0x0 0x90 0x1 0x92 0x2 0x2a 0x1b 0xd3 0x31 0x48 0x1a 0xe0 0x4 0x20 0x1 0xf0 0x67 0xf8 0x1 0x20 0x1 0xf0 0x44 0xf8 0xfe 0xbd 0x3 0x20 0x1 0xf0 0x56 0xfb 0xa0 0x7 0x6 0xd4 0x72 0xb6 0xc4 0x48 0xf0 0x49 0x1 0x22 0xa 0x54 0x62 0xb6 0xfe 0xbd 0xff 0xf7 0x97 0xfe 0x1 0x46 0x10 0x20 0x0 0xf0 0xcb 0xfd 0xfe 0xbd 0x22 0x48 0x24 0x4a 0xab 0x18 0x2a 0x1d 0x2 0x99 0x1e 0x4e 0xb0 0x47 0x29 0x68 0x1d 0x48 0x8 0x18 0x0 0x90 0x1 0x98 0x2 0x28 0x1 0xd3 0x1f 0x48 0x0 0xe0 0x1d 0x48 0x1c 0x4a 0x8b 0x18 0xa 0x1d 0x2 0x99 0x16 0x4d 0xa8 0x47 0x60 0x5 0x5 0xd5 0xb8 0x2 0x1 0xf0 0x14 0xf8 0x8 0x20 0x7 0x49 0x8 0x60 0x20 0x6 0x0 0xd4 0xfe 0xbd 0x80 0x20 0x1 0xf0 0xb 0xf8 0x0 0xf0 0x1d 0xfd 0xfe 0xbd 0x90 0x63 0x0 0x0 0x78 0x31 0x1 0x0 0x40 0x11 0x1 0x40 0x29 0x62 0x0 0x0 0x96 0x63 0x0 0x0 0x31 0x63 0x0 0x0 0x4 0x0 0x2 0x40 0x24 0x31 0x1 0x0 0x4 0x31 0x1 0x0 0x0 0x1 0x2 0x40 0x54 0x66 0x0 0x0 0x44 0x66 0x0 0x0 0x0 0x31 ] status=0x0
I2C Tx(0x41) toTx=200 [ 0xff 0x1 0x0 0xb9 0x26 0x1 0x0 0x4 0x41 0x0 0x0 0xf7 0x30 0x1 0x0 0xf4 0x30 0x1 0x0 0x4 0x40 0x0 0x0 0xfd 0x30 0x1 0x0 0xfa 0x30 0x1 0x0 0xf8 0xb5 0x0 0xf0 0xed 0xff 0x5 0x46 0x0 0xf0 0xf2 0xff 0x4 0x46 0x0 0xf0 0xe7 0xff 0x5 0x21 0x8 0x42 0x6 0xd0 0x4 0x20 0x0 0xf0 0xf1 0xff 0x1 0x20 0x0 0xf0 0xce 0xff 0xf8 0xbd 0x68 0x6 0x24 0xd5 0xb7 0x48 0xef 0x4e 0x30 0x5c 0x0 0x28 0x11 0xd0 0xa8 0x4 0x1d 0xd4 0xef 0xf7 0xde 0xf9 0x0 0x28 0x19 0xd0 0x7b 0x48 0x31 0x5c 0x78 0x48 0x30 0x5c 0x1b 0x4a 0x17 0x68 0x0 0xf0 0x29 0xfa 0x87 0x42 0xf 0xd2 0x0 0xf0 0x42 0xfa 0x40 0x20 0x0 0xf0 0xb1 0xff 0x17 0x48 0x30 0x58 0x80 0x47 0x1 0x20 0xc6 0x2 0x30 0x46 0x0 0xf0 0xd1 0xff 0x30 0x46 0x0 0xf0 0xc6 0xff 0xa8 0x5 0x18 0xd5 0x1 0x26 0x75 0x2 0x2c 0x42 0x14 0xd0 0x28 0x46 0x0 0xf0 0x9d 0xff 0x28 0x46 0x0 0xf0 0xa2 0xff 0x0 0xf0 0xc0 0xfc 0x70 0x3 0x0 0xf0 0xbd 0xff 0x34 0x3 0x20 0x46 0x0 0xf0 0xb1 0xff 0x20 0x46 0x0 0xf0 0xb6 0xff 0xf0 0x3 0x0 0xf0 0xab ] status=0x0
I2C Tx(0x41) toTx=200 [ 0xff 0xff 0x0 0xf0 0xc1 0xfa 0xf8 0xbd 0x9a 0x66 0x0 0x0 0x78 0x31 0x1 0x0 0x30 0x4 0x0 0x40 0x40 0x62 0x0 0x0 0x0 0x48 0x70 0x47 0x1c 0x63 0x0 0x0 0xfe 0xb5 0xe4 0x49 0x3 0xc9 0x4 0x22 0x1c 0x2a 0x4 0xd0 0x0 0x23 0x83 0x54 0x8b 0x54 0x52 0x1c 0xf8 0xe7 0x52 0x4a 0xe1 0x4e 0x2 0x25 0xb5 0x54 0x52 0x48 0x1 0x21 0x31 0x54 0x30 0x68 0x85 0x54 0x80 0x18 0x2 0x91 0x41 0x70 0x4f 0x48 0x21 0x21 0x31 0x52 0xb1 0x5c 0x37 0x20 0xc4 0x0 0x20 0x46 0x0 0xf0 0xae 0xfc 0x4b 0x49 0x4c 0x4a 0x72 0x50 0x4c 0x49 0x70 0x50 0x18 0x34 0x4b 0x48 0x34 0x52 0x4b 0x49 0x4c 0x4a 0x72 0x50 0x4c 0x49 0x4c 0x4a 0x72 0x50 0x4c 0x49 0x0 0x24 0x74 0x54 0x4c 0x49 0x4c 0x4a 0x72 0x52 0x4c 0x49 0x80 0x22 0x72 0x54 0xa0 0x49 0x4b 0x4a 0x72 0x52 0x4b 0x4f 0x4c 0x49 0xf1 0x53 0x4c 0x49 0x4c 0x4a 0x72 0x50 0x37 0x49 0x71 0x5c 0x2 0x29 0x0 0xd3 0x29 0x46 0x9 0x5 0x49 0x4a 0xa 0x43 0x49 0x4d 0x72 0x51 0x30 0x18 0x44 0x80 0x91 0x48 0x30 0x18 0x91 0x49 0x1 0xf0 0x51 0xf9 0x8e 0x49 0x74 0x54 0x46 0x49 ] status=0x0
I2C Tx(0x41) toTx=200 [ 0xff 0x46 0x4a 0x72 0x50 0x8e 0x49 0x70 0x50 0x0 0xf0 0xe6 0xf8 0x44 0x48 0x30 0x18 0x44 0x49 0xc 0x22 0xfe 0xf7 0x14 0xfc 0x70 0x59 0x0 0x5 0x80 0xf 0x3d 0x21 0xc9 0x0 0x81 0x40 0x40 0x48 0x31 0x52 0x40 0x4a 0xb4 0x54 0x32 0x68 0x11 0x52 0x3f 0x48 0x11 0x18 0x4c 0x70 0x3f 0x48 0xf 0x23 0x33 0x54 0x3e 0x48 0x34 0x50 0x3e 0x48 0x10 0x18 0x1 0x90 0x1f 0x20 0xc2 0x43 0x3d 0x4b 0x10 0x46 0x0 0x28 0x3 0xd0 0x35 0x18 0xeb 0x53 0x80 0x1c 0xf9 0xe7 0x2 0x20 0x34 0x4d 0x70 0x55 0x1 0x9d 0x28 0x70 0x37 0x4d 0x6 0x27 0x77 0x55 0x37 0x4d 0x74 0x55 0x8 0x70 0x8f 0x70 0xc 0x71 0x35 0x48 0x33 0x52 0x35 0x48 0x34 0x52 0x35 0x48 0x34 0x54 0x18 0x32 0x35 0x49 0x0 0x2a 0x3 0xd0 0xb0 0x18 0x44 0x54 0x52 0x1c 0xf9 0xe7 0x0 0xf0 0xf8 0xf8 0x43 0x48 0x20 0x21 0x1 0x60 0x2 0x9a 0xd1 0x4 0x1 0x60 0x11 0x5 0x1 0x60 0x51 0x5 0x1 0x60 0x91 0x4 0x1 0x60 0x91 0x2 0x1 0x60 0x10 0x21 0x1 0x60 0xfe 0xbd 0xc0 0x46 0x2b 0x62 0x0 0x0 0x78 0x31 0x1 0x0 0x2c 0x62 0x0 0x0 0xc 0x63 0x0 ] status=0x0
I2C Tx(0x41) toTx=200 [ 0xff 0x0 0x38 0x63 0x0 0x0 0x38 0x1 0x4 0x0 0x34 0x63 0x0 0x0 0x44 0x63 0x0 0x0 0x40 0x63 0x0 0x0 0x50 0x0 0x3 0x0 0x48 0x63 0x0 0x0 0x0 0x40 0x12 0x24 0x90 0x63 0x0 0x0 0x94 0x63 0x0 0x0 0x80 0x80 0x0 0x0 0x93 0x63 0x0 0x0 0x3 0x40 0x0 0x0 0x2e 0x63 0x0 0x0 0x9 0x3 0x0 0x0 0x4c 0x63 0x0 0x0 0x80 0x5 0x3f 0x1 0x0 0x28 0x0 0x3 0x3c 0x63 0x0 0x0 0x44 0x62 0x0 0x0 0x8 0x63 0x0 0x0 0x12 0x20 0x1 0x0 0x96 0x63 0x0 0x0 0x65 0x31 0x1 0x0 0x32 0x62 0x0 0x0 0x2e 0x62 0x0 0x0 0x2d 0x62 0x0 0x0 0x32 0x63 0x0 0x0 0x50 0x63 0x0 0x0 0x9b 0x66 0x0 0x0 0xff 0xff 0x0 0x0 0x2f 0x62 0x0 0x0 0x31 0x62 0x0 0x0 0xa4 0x63 0x0 0x0 0xa2 0x63 0x0 0x0 0xa6 0x63 0x0 0x0 0xb0 0x63 0x0 0x0 0xb0 0xb5 0x1 0x25 0xec 0x5 0xc 0x48 0x4 0x60 0xbf 0xf3 0x4f 0x8f 0xbf 0xf3 0x6f 0x8f 0xa 0x48 0xcf 0x4a 0x0 0x21 0x11 0x54 0x68 0x2 0x9 0x4b 0xd0 0x52 0xcd 0x48 0x11 0x50 0x3 0x20 0xef 0xf7 0x4f 0xf8 0x0 0xf0 0xe9 0xf9 0xa8 0x5 0x5 0x49 ] status=0x0
I2C Tx(0x41) toTx=200 [ 0xff 0x8 0x60 0xc 0x60 0xb0 0xbd 0x80 0xe1 0x0 0xe0 0x9a 0x66 0x0 0x0 0x78 0x31 0x1 0x0 0x98 0x66 0x0 0x0 0x0 0xe1 0x0 0xe0 0x0 0x29 0x5 0xd4 0x3 0x28 0x9 0xd3 0x4 0x28 0x3 0xd8 0x4 0x22 0x2 0xe0 0x0 0x21 0xb 0xe0 0x6 0x22 0x8a 0x1a 0x0 0xdb 0x11 0x46 0x1 0x28 0x1 0xd8 0x4 0x20 0x0 0xe0 0x6 0x20 0x49 0xb2 0x49 0x1c 0x81 0x40 0x88 0xb2 0x70 0x47 0x70 0xb5 0x90 0xb0 0x14 0x48 0x1 0x68 0xe8 0x4c 0xc0 0x22 0xa 0x40 0x40 0x2a 0x15 0xd1 0x12 0x4a 0xa2 0x5c 0x0 0x2a 0x11 0xd1 0x7 0x22 0xa 0x40 0x13 0x4b 0xe2 0x54 0x89 0x6 0x49 0xf 0x12 0x4a 0xa1 0x54 0x0 0x22 0x11 0x49 0x40 0x2a 0x9 0xd0 0x83 0x18 0x5d 0x68 0x6e 0x46 0xb5 0x54 0x5a 0x18 0xf7 0xe7 0xa8 0x48 0x20 0x18 0x8 0x49 0x2 0xe0 0xa6 0x48 0x20 0x18 0x69 0x46 0x1 0xf0 0x3a 0xf8 0x5 0x49 0x60 0x50 0x10 0xb0 0x70 0xbd 0x44 0x0 0x1 0x40 0x33 0x63 0x0 0x0 0x44 0x62 0x0 0x0 0x25 0x31 0x1 0x0 0x4 0x63 0x0 0x0 0x2f 0x63 0x0 0x0 0x30 0x63 0x0 0x0 0xbd 0xff 0xfe 0xbf 0xb0 0xb5 0x0 0x1 0x8 ] status=0x0
I2C Tx(0x41) toTx=200 [ 0xff 0x49 0x40 0x18 0xf 0x21 0xc9 0x43 0xc9 0x4a 0x8 0x4b 0x0 0x29 0x7 0xd0 0x54 0x18 0xe4 0x58 0x15 0x68 0x2d 0x18 0x6d 0x18 0x2c 0x61 0x9 0x1d 0xf5 0xe7 0xb0 0xbd 0xc0 0x46 0x64 0x63 0x0 0x0 0x78 0x31 0x1 0x0 0x54 0x66 0x0 0x0 0x70 0xb5 0x19 0x49 0x3 0xc9 0x1c 0x22 0x18 0x4b 0x20 0x2a 0x4 0xd0 0x10 0xcb 0x84 0x54 0x8c 0x54 0x52 0x1c 0xf8 0xe7 0x15 0x48 0xe9 0x4d 0x0 0x24 0x2c 0x54 0x15 0x48 0x2c 0x52 0xff 0x21 0xa 0x2 0xe4 0x4b 0xea 0x52 0x7e 0x4a 0xa9 0x54 0x2a 0x68 0x14 0x52 0x16 0x18 0xf1 0x70 0x31 0x71 0x10 0x48 0x2c 0x54 0xa5 0x48 0x2 0x21 0x11 0x54 0xb4 0x70 0xfe 0xf7 0xcd 0xfd 0xd 0x49 0x68 0x54 0xb0 0x72 0xee 0xf7 0xb0 0xff 0xe4 0x43 0xb 0x48 0x4 0x60 0x20 0x46 0x0 0xf0 0xb6 0xfd 0x20 0x46 0x0 0xf0 0xbb 0xfd 0x70 0xbd 0x10 0xf 0x0 0x0 0x34 0x0 0x1 0x40 0x92 0x63 0x0 0x0 0x78 0x31 0x1 0x0 0x26 0x62 0x0 0x0 0x91 0x63 0x0 0x0 0x30 0x62 0x0 0x0 0x84 0x3 0x1 0x40 0x10 0xb5 0xca 0x8 0x2 0x23 0x1a 0x40 0xc 0x9 0x1c 0x40 0xa2 0x18 0x7 0x24 ] status=0x0
I2C Tx(0x41) toTx=200 [ 0xff 0xc 0x40 0x89 0x8 0x19 0x40 0xc9 0x1c 0x61 0x43 0x54 0x18 0x0 0xf0 0x9 0xf8 0x60 0x43 0x80 0xb2 0x10 0xbd 0x80 0xb5 0xff 0xf7 0xea 0xff 0x1c 0x30 0x80 0xb2 0x80 0xbd 0x2 0x28 0x1 0xd2 0x40 0x21 0xa 0xe0 0x1 0x21 0x2 0x28 0x1 0xd1 0x9 0x2 0x5 0xe0 0x5 0x28 0x2 0xd3 0x3 0x21 0x49 0x2 0x0 0xe0 0x89 0x2 0x2 0x28 0x1 0xd8 0x0 0x20 0x0 0xe0 0x1 0x20 0xc1 0x40 0x8 0x46 0x70 0x47 0x70 0xb5 0x88 0xb0 0x4 0xac 0x20 0x20 0x20 0x70 0xec 0x48 0xe9 0x4d 0x28 0x5c 0x60 0x70 0xff 0xf7 0xe7 0xfd 0xb1 0x49 0x6a 0x58 0x52 0x1c 0x6a 0x50 0x0 0x1f 0xa0 0x70 0x0 0xa 0xe0 0x70 0x22 0x71 0x10 0xe 0xe0 0x71 0x10 0xc 0xa0 0x71 0x10 0xa 0x60 0x71 0x28 0x68 0xe2 0x49 0x42 0x5c 0x22 0x72 0x41 0x18 0x4a 0x78 0x62 0x72 0x89 0x78 0xa1 0x72 0xdf 0x49 0x40 0x5c 0x0 0x21 0x61 0x73 0x21 0x73 0xe1 0x73 0xa1 0x73 0xe0 0x72 0x64 0x48 0x2 0x68 0x2 0x23 0x9a 0x43 0x2 0x60 0x3 0x20 0xee 0xf7 0x29 0xff 0x4 0x21 0x20 0x46 0xfe 0xf7 0xf3 0xfb 0x0 0xf0 0x49 0xfd 0x5 0x24 0x20 0x42 0x3 ] status=0x0
I2C Tx(0x41) toTx=200 [ 0xff 0xd1 0xee 0xf7 0x50 0xff 0x0 0x28 0xf6 0xd0 0x3 0x20 0x2 0x21 0xee 0xf7 0x18 0xff 0x0 0xf0 0x3c 0xfd 0x20 0x42 0x8 0xd1 0x2e 0x48 0x28 0x18 0x1 0x26 0x31 0x2 0xfe 0xf7 0xdc 0xfb 0xb0 0x2 0x0 0xf0 0x41 0xfd 0x0 0xf0 0x2f 0xfd 0x20 0x42 0x3 0xd1 0xee 0xf7 0x37 0xff 0x0 0x28 0xf7 0xd0 0x0 0xf0 0x27 0xfd 0x20 0x42 0x7 0xd1 0x1 0x21 0xa 0x6 0x28 0x68 0x0 0x1d 0x10 0x43 0x9 0x3 0xfe 0xf7 0xc5 0xfb 0x0 0xf0 0x1b 0xfd 0x20 0x42 0x3 0xd1 0xee 0xf7 0x23 0xff 0x0 0x28 0xf7 0xd0 0x0 0xf0 0x13 0xfd 0x20 0x42 0x4 0xd1 0x28 0x1d 0x1 0x21 0x9 0x3 0xfe 0xf7 0xb4 0xfb 0x0 0xf0 0xa 0xfd 0x20 0x42 0x3 0xd1 0xee 0xf7 0x12 0xff 0x0 0x28 0xf7 0xd0 0x1 0xa8 0x14 0x49 0x41 0x81 0x1 0x21 0x1 0x72 0xb1 0x48 0x29 0x58 0x1 0x91 0x28 0x18 0x40 0x68 0x2 0x90 0x3 0x20 0x0 0x21 0xee 0xf7 0xcf 0xfe 0x0 0xf0 0xf3 0xfc 0x20 0x42 0x3 0xd1 0x1 0xa8 0x3 0x21 0xfe 0xf7 0x95 0xfb 0x0 0xf0 0xeb 0xfc 0x20 0x42 0x3 0xd1 0xee 0xf7 0xf3 0xfe 0x0 0x28 0xf7 0xd0 0x8 0xb0 0x70 0xbd ] status=0x0
I2C Tx(0x41) toTx=200 [ 0xff 0xc0 0x46 0x2a 0x62 0x0 0x0 0x78 0x31 0x1 0x0 0x84 0x66 0x0 0x0 0x44 0x62 0x0 0x0 0xf7 0xe0 0x0 0x0 0xf8 0xb5 0x72 0xb6 0x0 0xf0 0xd4 0xfc 0x80 0x4 0x3f 0xd5 0x95 0x48 0xe9 0x4e 0x31 0x5c 0xcf 0x48 0x30 0x5c 0xff 0xf7 0x2c 0xff 0x4 0x46 0x1c 0x48 0x30 0x5c 0x0 0x28 0x2 0xd0 0xff 0xf7 0x34 0xfd 0x0 0xe0 0x20 0x46 0x19 0x4f 0xf9 0x6a 0x81 0x42 0x2b 0xd2 0xfe 0xf7 0x4a 0xfb 0xa0 0x42 0x27 0xd3 0x1 0x25 0xee 0xf7 0xc3 0xfe 0x0 0x28 0x17 0xd0 0x14 0x48 0x30 0x5c 0x1 0x28 0x15 0xd8 0x6e 0x3 0xff 0xf7 0x9e 0xfb 0x5 0x46 0x30 0x46 0x0 0xf0 0x9a 0xfc 0x3 0x20 0x0 0x21 0xee 0xf7 0x80 0xfe 0x38 0x68 0x2 0x21 0x1 0x43 0x39 0x60 0xa1 0x8 0x28 0x46 0xfe 0xf7 0x46 0xfb 0xa 0xe0 0x68 0x7 0x0 0xe0 0x28 0x7 0x0 0xf0 0xa8 0xfc 0x28 0x46 0x0 0xf0 0xa5 0xfc 0x28 0x46 0x0 0xf0 0xaa 0xfc 0x62 0xb6 0xf8 0xbd 0x9a 0x66 0x0 0x0 0x4 0x4 0x0 0x40 0x99 0x66 0x0 0x0 0x10 0xb5 0x71 0x48 0xe2 0x4a 0x11 0x5c 0xaa 0x48 0x10 0x5c 0xff 0xf7 0xe3 0xfe 0x4 0x46 0xfe 0xf7 0x17 ] status=0x0
I2C Tx(0x41) toTx=200 [ 0xff 0xfb 0x0 0x1b 0xa0 0x42 0x0 0xdb 0x20 0x46 0x80 0xb2 0xfe 0xf7 0x1a 0xfb 0x10 0xbd 0xc0 0x46 0x78 0x31 0x1 0x0 0xf0 0xb5 0x85 0xb0 0xd6 0x48 0xd7 0x4d 0x28 0x5c 0xff 0xf7 0x5d 0xfb 0x4 0x46 0x62 0x48 0x29 0x5c 0x9c 0x48 0x28 0x5c 0xff 0xf7 0xc7 0xfe 0x28 0x49 0x6a 0x58 0x56 0x1c 0x6e 0x50 0x61 0x49 0x69 0x5a 0xa 0xa 0xe2 0x73 0xa1 0x73 0x31 0xe 0xe1 0x71 0x31 0xc 0xa1 0x71 0x31 0xa 0x61 0x71 0x26 0x71 0x24 0x18 0x27 0x46 0x8 0x3f 0x20 0x48 0x28 0x58 0x38 0x70 0x1 0xe 0xf9 0x70 0x1 0xc 0xb9 0x70 0x0 0xa 0x78 0x70 0x57 0x48 0x28 0x5c 0x0 0x28 0x2b 0xd0 0x1 0x20 0x4 0x90 0xff 0xf7 0x32 0xfe 0xf8 0x78 0x3 0x90 0xb8 0x78 0x2 0x90 0x38 0x78 0x1 0x90 0x7b 0x78 0xc 0x3c 0xe7 0x78 0xa1 0x78 0x20 0x78 0x64 0x78 0x2d 0x68 0x12 0x4a 0xae 0x50 0x22 0x2 0x10 0x18 0x9 0x4 0x3a 0x6 0x51 0x18 0x8 0x18 0xf 0x49 0x68 0x50 0x68 0x18 0xe 0x49 0x1a 0x2 0x1 0x9b 0xd2 0x18 0x2 0x9b 0x1b 0x4 0x3 0x9c 0x24 0x6 0xe3 0x18 0x9a 0x18 0x42 0x60 0x81 0x60 0x4 0x98 0x40 0x4 ] status=0x0
I2C Tx(0x41) toTx=200 [ 0xff 0x0 0xf0 0x2a 0xfc 0x5 0xb0 0xf0 0xbd 0x28 0x62 0x0 0x0 0x78 0x31 0x1 0x0 0x84 0x66 0x0 0x0 0x8c 0x66 0x0 0x0 0x58 0x63 0x0 0x0 0x84 0x63 0x0 0x0 0x1 0x0 0xf7 0xe0 0xf8 0xb5 0xa2 0x48 0xc6 0x4d 0x28 0x5c 0xff 0xf7 0xf4 0xfa 0x4 0x46 0x2e 0x4f 0xe9 0x5d 0x68 0x4e 0xa8 0x5d 0xff 0xf7 0x5e 0xfe 0x10 0x21 0x21 0x70 0x22 0x18 0x11 0x46 0xc 0x39 0xae 0x5d 0xeb 0x5d 0x3 0x2e 0xa 0xd3 0x4 0x2e 0x1 0xd8 0x4 0x26 0x0 0xe0 0x6 0x26 0x25 0x4f 0xef 0x57 0xbe 0x42 0x1 0xdc 0x40 0x26 0x33 0x43 0x63 0x70 0x0 0x1f 0xa0 0x70 0x0 0xa 0xe0 0x70 0x2e 0x68 0x20 0x48 0x33 0x5c 0x23 0x72 0x33 0x18 0x58 0x78 0x60 0x72 0x98 0x78 0xa0 0x72 0x1d 0x48 0x30 0x5c 0x1d 0x4f 0xef 0x5b 0x27 0x73 0xe0 0x72 0x38 0xa 0x60 0x73 0x5b 0x48 0x2c 0x58 0xc 0x70 0xd7 0x1e 0x0 0x20 0x38 0x70 0x17 0x1f 0xc0 0x25 0x3d 0x70 0x92 0x1e 0xe0 0x25 0x55 0x70 0xf7 0x25 0x15 0x70 0x22 0xe 0xca 0x70 0x22 0xc 0x8a 0x70 0x22 0xa 0x4a 0x70 0x12 0x49 0xa1 0x4a 0x51 0x5c 0x0 0x29 0x10 0xd0 0xc 0x49 0x71 ] status=0x0
I2C Tx(0x41) toTx=200 [ 0xff 0x18 0x9d 0x4a 0xb2 0x18 0xe 0x4c 0x14 0x60 0xd0 0x60 0x1c 0x78 0x14 0x72 0x5c 0x78 0x54 0x72 0x9b 0x78 0x93 0x72 0x9 0x78 0xd1 0x72 0xff 0xf7 0x99 0xfd 0xf8 0xbd 0x78 0x31 0x1 0x0 0x2c 0x62 0x0 0x0 0x2a 0x62 0x0 0x0 0x93 0x63 0x0 0x0 0x31 0x63 0x0 0x0 0x24 0x62 0x0 0x0 0x88 0x66 0x0 0x0 0x98 0x66 0x0 0x0 0x30 0x3a 0x38 0x0 0xf0 0xb5 0xb3 0xb0 0x2f 0x48 0x8c 0x4f 0x39 0x5c 0x49 0x1c 0x39 0x54 0x2e 0x4a 0xbd 0x5c 0x3a 0x68 0x11 0x54 0x2d 0x4e 0xb9 0x5d 0x4 0x29 0x1 0xd8 0x8 0x22 0x0 0xe0 0xc 0x22 0x2 0x29 0x0 0xd8 0x2 0x22 0x3c 0x5c 0xa2 0x42 0x44 0xd9 0x0 0x2c 0x1 0xd0 0x3 0x29 0x19 0xd3 0x25 0x48 0x38 0x58 0x25 0x49 0x79 0x58 0x0 0xf0 0xf8 0xfc 0x2 0x90 0x24 0x48 0x39 0x5c 0xb8 0x5d 0x23 0x4a 0xba 0x18 0x0 0x92 0x3 0xae 0x22 0x46 0x33 0x46 0x0 0xf0 0x80 0xfa 0x20 0x48 0x39 0x5c 0x20 0x48 0x38 0x5c 0x2 0x9a 0x33 0x46 0x0 0xf0 0x62 0xfc 0x1 0x20 0x4 0x40 0x60 0x0 0xc5 0x40 0xa8 0x7 0xf 0xd0 0x1b 0x48 0x39 0x5a 0x1b 0x4a 0xa 0x40 0x69 0x8 ] status=0x0
I2C Tx(0x41) toTx=200 [ 0xff 0xc9 0x7 0x89 0xd 0x51 0x18 0x39 0x52 0x38 0x18 0x0 0xf0 0x8a 0xfe 0x31 0x48 0x38 0x18 0x0 0xf0 0xc2 0xfe 0xa0 0x0 0x39 0x68 0x8 0x18 0x14 0x49 0x9 0x68 0x14 0x4a 0x81 0x50 0x14 0x48 0x38 0x5c 0x14 0x49 0x79 0x18 0x0 0xf0 0x69 0xfb 0x20 0x46 0xfe 0xf7 0x4c 0xf8 0x2 0xe0 0x80 0x20 0x0 0xf0 0x4e 0xfb 0x33 0xb0 0xf0 0xbd 0x29 0x62 0x0 0x0 0x2e 0x63 0x0 0x0 0x2b 0x62 0x0 0x0 0x8 0x63 0x0 0x0 0x4 0x63 0x0 0x0 0x4e 0x63 0x0 0x0 0x44 0x62 0x0 0x0 0x30 0x63 0x0 0x0 0x2f 0x63 0x0 0x0 0x44 0x63 0x0 0x0 0xff 0xfd 0x0 0x0 0x20 0x10 0x1 0x40 0x88 0x66 0x0 0x0 0x32 0x63 0x0 0x0 0xe 0x63 0x0 0x0 0x10 0xb5 0x0 0xf0 0x5f 0xfb 0x3 0x20 0x0 0x21 0x7 0x4a 0x0 0xf0 0x2 0xfe 0x1 0x24 0x20 0x46 0x0 0xf0 0x1a 0xfb 0x20 0x46 0x0 0xf0 0x1f 0xfb 0x3 0x48 0x45 0x49 0xc 0x54 0x10 0xbd 0xc0 0x46 0xb8 0xb 0x0 0x0 0x91 0x63 0x0 0x0 0x78 0x31 0x1 0x0 0x80 0xb5 0x7 0x48 0x0 0x21 0x1 0x60 0x6 0x48 0x3e 0x49 0x8 0x18 0x0 0xf0 0x65 0xfb 0x0 0xf0 0x11 ] status=0x0
I2C Tx(0x41) toTx=200 [ 0xff 0xfb 0x1 0x20 0x0 0x2 0x0 0xf0 0x5 0xfb 0x80 0xbd 0x4 0x0 0x2 0x40 0x96 0x63 0x0 0x0 0xf8 0xb5 0x11 0x4d 0x35 0x4e 0x70 0x5d 0xff 0xf7 0xd2 0xf9 0x81 0x78 0xc2 0x78 0x12 0x2 0x51 0x18 0x1 0x22 0x42 0x54 0xd 0x4f 0x72 0xb6 0xee 0xf7 0xe4 0xfc 0x4 0x46 0x0 0x28 0x6 0xd0 0x70 0x5d 0xf0 0x55 0x41 0x42 0x41 0x41 0x71 0x55 0x30 0x68 0x41 0x55 0x62 0xb6 0x0 0xf0 0xcb 0xfa 0x0 0x2c 0x2 0xd1 0x5 0x21 0x8 0x40 0xea 0xd0 0xf8 0xbd 0xc0 0x46 0x28 0x62 0x0 0x0 0x78 0x31 0x1 0x0 0x99 0x66 0x0 0x0 0x80 0xb5 0xa 0x46 0x4 0x29 0x1 0xd8 0x8 0x21 0x0 0xe0 0xc 0x21 0x2 0x2a 0x0 0xd8 0x2 0x21 0x80 0x2 0x0 0x22 0x0 0xf0 0xce 0xfd 0x80 0xbd 0x0 0x0 0xbc 0xb5 0x0 0xf0 0xab 0xfa 0x80 0x3 0x28 0xd5 0x1 0x20 0x40 0x4 0x0 0xf0 0x95 0xfa 0x13 0x48 0x20 0x25 0x5 0x60 0xbf 0xf3 0x4f 0x8f 0xbf 0xf3 0x6f 0x8f 0x68 0x46 0xee 0xf7 0xa7 0xfa 0xf 0x48 0xf 0x49 0xc 0x18 0x1 0x98 0x20 0x30 0xf 0x22 0x21 0x46 0xfe 0xf7 0x14 0xf9 0xee 0xf7 0x60 0xfc 0x0 0x28 0xfb 0xd0 ] status=0x0
I2C Tx(0x41) toTx=200 [ 0xff 0xee 0xf7 0xec 0xfa 0x0 0x98 0x20 0x30 0xf 0x22 0x21 0x46 0xfe 0xf7 0x8 0xf9 0xee 0xf7 0x54 0xfc 0x0 0x28 0xfb 0xd0 0x4 0x48 0x5 0x60 0xbc 0xbd 0xc0 0x46 0x80 0xe1 0x0 0xe0 0x54 0x63 0x0 0x0 0x78 0x31 0x1 0x0 0x0 0xe1 0x0 0xe0 0xbc 0xb5 0xc 0x46 0x5 0x46 0x68 0x46 0xee 0xf7 0x7c 0xfa 0x1 0x98 0x45 0x72 0x4 0x72 0xee 0xf7 0xcb 0xfa 0x0 0x98 0x45 0x72 0x4 0x72 0xbc 0xbd 0x0 0x0 0xb0 0xb5 0x27 0x4c 0x17 0x21 0x21 0x60 0x1f 0x25 0x25 0x60 0xf 0x21 0x21 0x60 0xc1 0x79 0xa 0x20 0x48 0x43 0x0 0xf0 0xf5 0xfd 0x25 0x60 0x0 0x20 0x0 0xf0 0xf1 0xfd 0x21 0x68 0x60 0x20 0x8 0x40 0xb0 0xbd 0xc0 0x46 0x70 0xb5 0xc 0x46 0x11 0x21 0x1 0x43 0x1a 0x4d 0x29 0x60 0x19 0x26 0x6 0x43 0x2e 0x60 0x9 0x21 0x1 0x43 0x29 0x60 0xd1 0x79 0xa 0x20 0x48 0x43 0x0 0xf0 0xdb 0xfd 0x2e 0x60 0x0 0x20 0x0 0xf0 0xd7 0xfd 0x28 0x68 0x20 0x40 0x41 0x1e 0x88 0x41 0x70 0xbd 0xb0 0xb5 0x4 0x46 0xe 0x4d 0x1e 0x20 0x28 0x60 0x60 0x79 0x0 0xf0 0xca 0xfd 0x1f 0x20 0x28 0x60 0xa0 0x79 0x0 ] status=0x0
I2C Tx(0x41) toTx=200 [ 0xff 0xf0 0xc5 0xfd 0xb0 0xbd 0x70 0xb5 0xc 0x46 0x5 0x46 0x18 0x20 0x28 0x43 0x6 0x4e 0x30 0x60 0x48 0x79 0x0 0xf0 0xba 0xfd 0x19 0x20 0x28 0x43 0x30 0x60 0xa0 0x79 0x0 0xf0 0xb4 0xfd 0x70 0xbd 0xc0 0x46 0xd8 0x3 0x1 0x40 0xf8 0xb5 0x14 0x46 0xe 0x46 0x5 0x46 0x81 0x78 0xc8 0x6 0x14 0xd4 0x68 0x46 0x0 0x22 0x42 0x80 0x2a 0x78 0x7f 0x23 0x13 0x40 0x3 0x22 0xd2 0x1 0x49 0x1 0x11 0x40 0xc9 0x18 0x1 0x80 0x0 0xf0 0x3b 0xfd 0x20 0x46 0x0 0xf0 0x74 0xfd 0x7 0x46 0x0 0x28 0x38 0xd1 0x2 0xe0 0x28 0x78 0x0 0xf0 0x5b 0xfa 0x20 0x46 0x0 0xf0 0x64 0xfa 0x20 0x46 0x0 0xf0 0x81 0xfa 0x1e 0x4a 0x10 0x68 0x40 0x21 0x1 0x43 0x11 0x60 0xa9 0x78 0x3 0x20 0x8 0x40 0x2 0x28 0x16 0xd0 0x1 0x28 0x8 0xd0 0x0 0x28 0x1c 0xd1 0x4 0x27 0x38 0x46 0x21 0x46 0xff 0xf7 0xb4 0xff 0x40 0x22 0x5 0xe0 0x2 0x27 0x38 0x46 0x21 0x46 0xff 0xf7 0xad 0xff 0x20 0x22 0x30 0x46 0x39 0x46 0x23 0x46 0x0 0xf0 0x1f 0xf8 0x7 0xe0 0x20 0x46 0xff 0xf7 0x95 0xff 0x30 0x46 0x29 0x46 0x22 0x46 0x0 0xf0 ] status=0x0
I2C Tx(0x41) toTx=200 [ 0xff 0x55 0xf8 0x7 0x46 0x0 0xe0 0xfc 0x27 0x20 0x46 0x0 0xf0 0x32 0xfa 0xa8 0x78 0xc0 0x6 0x3 0xd4 0x20 0x46 0x0 0xf0 0x20 0xfd 0x1 0xe0 0x0 0xf0 0x17 0xfa 0x18 0x20 0x1 0x49 0x8 0x62 0x78 0xb2 0xf8 0xbd 0xb8 0x3 0x1 0x40 0xfe 0xb5 0x1c 0x46 0x2 0x92 0x1 0x91 0x7 0x46 0x0 0x26 0x35 0x46 0x8 0x35 0xe8 0xb2 0x21 0x46 0x0 0xf0 0x6c 0xfa 0x1 0x98 0x2 0x99 0x22 0x46 0xff 0xf7 0x4f 0xff 0x6f 0x2e 0x8 0xd8 0x0 0x28 0x6 0xd1 0x0 0x2f 0x2 0xd0 0x39 0x78 0x0 0x29 0x1 0xd1 0x8 0x36 0xe9 0xe7 0x10 0x26 0x0 0x28 0x4 0xd0 0x1 0x2d 0x0 0xdc 0x1 0x25 0x6d 0x1e 0x3 0xe0 0x7e 0x2d 0x0 0xdb 0x7e 0x25 0x6d 0x1c 0xe8 0xb2 0x21 0x46 0x0 0xf0 0x4c 0xfa 0x1 0x98 0x2 0x99 0x22 0x46 0xff 0xf7 0x2f 0xff 0x2 0x2e 0x6 0xd3 0x0 0x2f 0x2 0xd0 0x39 0x78 0x0 0x29 0x1 0xd1 0x76 0x1e 0xe2 0xe7 0x1 0x21 0x48 0x40 0x40 0x19 0x40 0xb2 0xfe 0xbd 0xf0 0xb5 0x85 0xb0 0x2 0x92 0xca 0x78 0xf 0x23 0x13 0x40 0x4 0x93 0x0 0x91 0x4f 0x78 0x0 0x25 0xe9 0x43 0x1 0x91 0x2c 0x46 0x3 ] status=0x0
I2C Tx(0x41) toTx=200 [ 0xff 0x90 0x2 0x9e 0xf8 0xb2 0x31 0x46 0x0 0xf0 0x26 0xfa 0x30 0x46 0xff 0xf7 0xf5 0xfe 0x0 0x28 0xc 0xd0 0x60 0x28 0x24 0xd1 0x69 0x1e 0x4b 0x42 0x4b 0x41 0x1 0x2d 0x0 0xd1 0x4 0x95 0x4 0x98 0xc1 0xb2 0x7f 0x1a 0x1 0x9d 0xa 0xe0 0x69 0x1c 0x4b 0x42 0x4b 0x41 0x1 0x25 0x0 0x29 0x29 0x46 0x0 0xd0 0x4 0x99 0xca 0xb2 0xbf 0x18 0x4 0x91 0x3 0x98 0x7f 0x2f 0x34 0xd8 0xe4 0x18 0x0 0x28 0x5 0xd0 0x1 0x78 0x0 0x29 0x30 0xd1 0x4 0x2c 0xd3 0xd3 0x2d 0xe0 0x4 0x2c 0xd0 0xd3 0x30 0xe0 0x20 0x28 0x3 0x98 0x25 0xd1 0x0 0x25 0x2c 0x46 0x0 0x99 0x2 0x9a 0x0 0xf0 0x2c 0xf8 0x0 0x28 0x4 0xd0 0x60 0x28 0x18 0xd1 0x1 0x21 0x1 0x9a 0x1 0xe0 0x1 0x22 0x1 0x99 0x3 0x98 0x8d 0x42 0x0 0xd1 0x64 0x1c 0xbf 0x18 0x7f 0x2f 0xf 0xd8 0x0 0x28 0x6 0xd0 0x1 0x78 0x0 0x29 0xc 0xd1 0x4 0x2c 0x15 0x46 0xe3 0xd3 0x8 0xe0 0x4 0x2c 0x15 0x46 0xdf 0xd3 0xa 0xe0 0x20 0x28 0x3 0x98 0x8 0xd0 0x0 0x28 0x5 0xd0 0x0 0x78 0x0 0x28 0x2 0xd0 0x0 0x98 0x47 0x78 0x0 0xe0 0xfa 0x27 ] status=0x0
I2C Tx(0x41) toTx=200 [ 0xff 0x78 0xb2 0x5 0xb0 0xf0 0xbd 0x70 0xb5 0x14 0x46 0x5 0x46 0xc8 0x78 0x0 0x9 0x46 0x1c 0x20 0x20 0x76 0x1e 0x9 0xd0 0x0 0x2d 0x2 0xd0 0x29 0x78 0x0 0x29 0x4 0xd1 0x20 0x46 0xff 0xf7 0x86 0xfe 0x20 0x28 0xf2 0xd0 0x70 0xbd 0x0 0x0 0x10 0xb5 0x2 0x9c 0x3 0x28 0x24 0xd0 0x4 0x28 0x14 0xd0 0x5 0x28 0x34 0xd1 0x50 0x1e 0xa 0x28 0x18 0xd8 0xc0 0x46 0x78 0x44 0x0 0x79 0x40 0x0 0x87 0x44 0x37 0x5 0x50 0x32 0x3c 0x13 0x37 0x5 0x50 0x32 0x3c 0x0 0x18 0x46 0x21 0x46 0x0 0xf0 0x7a 0xfa 0x10 0xbd 0x3 0x20 0x2 0x40 0xc0 0x46 0x7a 0x44 0x12 0x79 0x52 0x0 0x97 0x44 0x1 0x25 0x20 0x2a 0x18 0x46 0x21 0x46 0x0 0xf0 0x5c 0xfa 0x10 0xbd 0x3 0x20 0x2 0x40 0x90 0x0 0x1 0xa1 0x8 0x58 0x87 0x46 0xc0 0x46 0xf1 0x25 0x1 0x0 0x39 0x26 0x1 0x0 0x25 0x26 0x1 0x0 0x2f 0x26 0x1 0x0 0x18 0x46 0x21 0x46 0x0 0xf0 0x50 0xfa 0x10 0xbd 0x8 0x46 0x19 0x46 0x22 0x46 0x0 0xf0 0x24 0xfa 0x10 0xbd 0x18 0x46 0x21 0x46 0x0 0xf0 0xf7 0xf9 0x10 0xbd 0x18 0x46 0x21 0x46 0x0 0xf0 0x50 ] status=0x0
I2C Tx(0x41) toTx=200 [ 0xff 0xfa 0x10 0xbd 0x18 0x46 0x21 0x46 0x0 0xf0 0x5 0xfa 0x10 0xbd 0x18 0x46 0x21 0x46 0x0 0xf0 0xf0 0xf9 0x10 0xbd 0x18 0x46 0x21 0x46 0x0 0xf0 0x3 0xfa 0x10 0xbd 0x18 0x46 0x21 0x46 0x0 0xf0 0x44 0xfa 0x10 0xbd 0x18 0x46 0x21 0x46 0x0 0xf0 0xe9 0xf9 0x10 0xbd 0x80 0xb5 0x1 0x46 0x0 0x20 0xfd 0xf7 0x9d 0xfe 0xa 0x49 0x88 0x42 0x1 0xd9 0x80 0x20 0xc 0xe0 0x8 0x49 0x8 0x1a 0x4b 0x21 0x49 0x2 0x41 0x43 0xc8 0x17 0x0 0xc 0x8 0x18 0x0 0x14 0x6b 0x28 0x0 0xdb 0x6b 0x20 0x14 0x30 0x40 0xb2 0x80 0xbd 0xc0 0x46 0x15 0x3 0x0 0x0 0x17 0x2 0x0 0x0 0x10 0xb5 0x4 0x46 0x80 0x78 0x80 0x7 0x40 0xe 0x8 0x49 0x2 0x22 0x42 0x50 0x20 0x46 0x0 0xf0 0x3 0xf8 0x0 0x28 0xfa 0xd1 0x10 0xbd 0x80 0x78 0x80 0x7 0x40 0xe 0x2 0x49 0x40 0x58 0x40 0x7 0xc0 0xf 0x70 0x47 0x2c 0x1 0x2 0x40 0xf0 0xb5 0x84 0x78 0xa4 0x7 0x65 0xe 0xd 0x4e 0xac 0x19 0x7 0x78 0x27 0x61 0x47 0x78 0x67 0x61 0x80 0x78 0xaa 0x51 0x63 0x60 0x5 0x9a 0xa2 0x60 0xc2 0x0 0xc0 0x23 0x13 0x40 0x82 0x0 ] status=0x0
I2C Tx(0x41) toTx=200 [ 0xff 0x10 0x25 0x15 0x40 0xc9 0x7 0x89 0xe 0x49 0x19 0xc9 0x18 0x80 0x6 0xc0 0xf 0x0 0x2 0x8 0x18 0x9 0x30 0xe0 0x60 0xf0 0xbd 0x20 0x1 0x2 0x40 0x7c 0xb5 0x16 0x46 0xc 0x46 0x5 0x46 0x0 0x20 0x1 0x90 0xe8 0x17 0x29 0x46 0x41 0x40 0x8 0x1a 0xe1 0x17 0x22 0x46 0x4a 0x40 0x51 0x1a 0x1 0xaa 0x0 0xf0 0x37 0xfb 0x1 0x99 0x0 0x2d 0x0 0xd5 0x49 0x42 0x31 0x60 0x6c 0x40 0x0 0xd5 0x40 0x42 0x7c 0xbd 0x1 0x21 0x89 0x7 0xa 0x68 0x12 0x1 0x51 0x18 0xd4 0x22 0x88 0x50 0x70 0x47 0x1 0x21 0x89 0x7 0xa 0x68 0x12 0x1 0x89 0x1a 0xe4 0x22 0x88 0x50 0x70 0x47 0x1 0x20 0x80 0x7 0x1 0x68 0x9 0x1 0x8 0x18 0xd4 0x21 0x40 0x58 0x70 0x47 0x1 0x20 0x80 0x7 0x1 0x68 0x9 0x1 0x40 0x1a 0xe4 0x21 0x40 0x58 0x70 0x47 0x1 0x21 0x89 0x7 0xa 0x68 0x12 0x1 0x89 0x1a 0xe8 0x22 0x88 0x50 0x70 0x47 0x1 0x21 0x89 0x7 0xa 0x68 0x12 0x1 0x51 0x18 0xd8 0x22 0x88 0x50 0x70 0x47 0xa 0x48 0x0 0x21 0x1 0x64 0x3f 0x22 0xd2 0x43 0x0 0x2a 0x3 0xd0 0x13 0x18 0x19 0x64 0x12 0x1d 0xf9 ] status=0x0
I2C Tx(0x41) toTx=200 [ 0xff 0xe7 0x70 0x47 0x4 0x4a 0x10 0x64 0x0 0x20 0x20 0x28 0x3 0xd0 0xb 0x5a 0x8 0xc2 0x80 0x1c 0xf9 0xe7 0x70 0x47 0x40 0x0 0x2 0x40 0x12 0x4b 0x1 0x22 0x5a 0x60 0x99 0x60 0x5 0x49 0x88 0x42 0x0 0xd3 0x8 0x46 0x5 0x21 0x41 0x43 0xd9 0x60 0x1a 0x60 0x90 0x2 0x2 0x49 0x8 0x60 0x70 0x47 0x33 0x33 0x33 0x33 0x0 0xe1 0x0 0xe0 0x1 0x20 0x81 0x2 0x6 0x4a 0x11 0x60 0xbf 0xf3 0x4f 0x8f 0xbf 0xf3 0x6f 0x8f 0x4 0x49 0x0 0x22 0xa 0x60 0x48 0x60 0x8a 0x60 0xca 0x60 0x70 0x47 0xc0 0x46 0x80 0xe1 0x0 0xe0 0x50 0x1 0x0 0x40 0x32 0x48 0x1 0x68 0x1 0x22 0x91 0x43 0x1 0x60 0x70 0x47 0x2f 0x49 0xa 0x68 0x6 0x23 0x9a 0x43 0x80 0x7 0x40 0xf 0x80 0x18 0x1 0x22 0x2 0x43 0xa 0x60 0x70 0x47 0xc0 0x46 0xf8 0xb5 0x4 0x46 0x3b 0x4e 0x30 0x68 0x0 0x6 0x17 0xd5 0x0 0x25 0x28 0x46 0x21 0x46 0x0 0xf0 0x3f 0xf8 0xb0 0x68 0x20 0x27 0x38 0x43 0xb0 0x60 0x70 0x68 0x80 0x21 0x88 0x43 0x70 0x60 0x35 0x60 0x20 0x78 0x0 0xf0 0x13 0xfb 0xb0 0x68 0x8 0x21 0x88 0x43 0xb0 0x60 0xb0 0x68 ] status=0x0
I2C Tx(0x41) toTx=200 [ 0xff 0xb8 0x43 0xb0 0x60 0xf8 0xbd 0xc0 0x46 0xf8 0xb5 0x4 0x46 0x2b 0x4e 0x30 0x68 0x0 0x6 0x1f 0xd4 0xb0 0x68 0x20 0x21 0x0 0x91 0x8 0x43 0xb0 0x60 0x1 0x25 0xd 0x4f 0x28 0x46 0xb8 0x47 0xb0 0x68 0x8 0x21 0x1 0x43 0xb1 0x60 0x28 0x46 0xb8 0x47 0x39 0x46 0x80 0x27 0x37 0x60 0x28 0x46 0xd 0x46 0x88 0x47 0x70 0x68 0x38 0x43 0x70 0x60 0x20 0x78 0xa8 0x47 0xb0 0x68 0x0 0x99 0x88 0x43 0xb0 0x60 0xa0 0x78 0xa8 0x47 0xf8 0xbd 0xc0 0x46 0x89 0x2e 0x1 0x0 0x80 0xb5 0x0 0xf0 0x9 0xf8 0x3 0x48 0x1 0x68 0x40 0x22 0x91 0x43 0x1 0x60 0x80 0xbd 0xc0 0x46 0xb8 0x3 0x1 0x40 0xf8 0xb5 0xc 0x46 0x10 0x49 0xa 0x68 0x7f 0x23 0x15 0x46 0x1d 0x40 0x85 0x42 0x18 0xd0 0xa8 0x42 0x5 0xd2 0x8e 0x68 0x40 0x27 0x37 0x43 0x8f 0x60 0x2d 0x1a 0x0 0xe0 0x45 0x1b 0x18 0x40 0x80 0x23 0x1a 0x40 0x10 0x18 0x8 0x60 0x60 0x78 0x0 0xf0 0xba 0xfa 0x29 0xb2 0xe0 0x78 0xd 0x1a 0x29 0x4 0x1 0x29 0x1 0xdb 0x0 0x28 0xf4 0xd1 0xf8 0xbd 0xc0 0x46 0xb0 0x3 0x1 0x40 0xc6 0x20 0x30 0x49 0x30 0x4a 0x0 ] status=0x0
I2C Tx(0x41) toTx=200 [ 0xff 0x28 0x4 0xd0 0x0 0x23 0x8 0xc2 0x8 0xc1 0x40 0x1e 0xf8 0xe7 0x3 0x48 0x0 0x21 0x1 0x60 0x41 0x60 0x81 0x60 0xc1 0x60 0x70 0x47 0xc0 0x46 0xb0 0x0 0x2 0x40 0xf0 0xb5 0x87 0xb0 0x6 0x93 0x0 0x92 0x2 0x91 0x3 0x27 0x47 0x43 0x23 0x4b 0xc0 0x33 0x0 0x24 0x22 0x49 0xe 0x46 0xa7 0x42 0x7 0xd0 0x0 0x22 0x4 0xc6 0x1d 0x1d 0xc0 0x3b 0x1a 0x60 0x64 0x1c 0x2b 0x46 0xf5 0xe7 0xc 0x22 0x1 0x90 0x42 0x43 0x1a 0x48 0x15 0x18 0x50 0x18 0x5 0x90 0x2 0x9a 0x50 0x0 0x16 0x22 0x4 0x90 0x10 0x1a 0x3 0x90 0x30 0x34 0xc0 0x36 0xbc 0x42 0xf 0xd0 0x6 0x9a 0x29 0x46 0x20 0xca 0x6 0x92 0x2a 0x46 0x4 0x98 0x82 0x40 0x5 0x98 0x4 0xc0 0x5 0x90 0x3 0x98 0xc5 0x40 0x20 0xc1 0xd 0x46 0x7f 0x1c 0xed 0xe7 0x1 0x9a 0xc5 0x2c 0x4 0xd8 0x0 0x21 0x2 0xc6 0x2 0xc3 0x64 0x1c 0xf8 0xe7 0x9 0x48 0x0 0x9b 0x3 0x61 0x99 0x9 0x41 0x61 0x19 0xb 0x81 0x61 0x99 0xc 0xc1 0x61 0x2 0x60 0x2 0x99 0x41 0x60 0x7 0xb0 0xf0 0xbd 0xc0 0x46 0x0 0x0 0x7 0x40 0x0 0x0 0x6 0x40 0xa0 0x0 ] status=0x0
I2C Tx(0x41) toTx=200 [ 0xff 0x2 0x40 0x80 0xb5 0xa 0x46 0x1 0x46 0x8 0x20 0x0 0x23 0x0 0xf0 0x67 0xf8 0x80 0xbd 0x80 0xb5 0xa 0x46 0x1 0x46 0x18 0x20 0x3 0x23 0x0 0xf0 0x5f 0xf8 0x80 0xbd 0x80 0xb5 0xa 0x46 0x1 0x46 0x10 0x20 0x1 0x23 0x0 0xf0 0x57 0xf8 0x80 0xbd 0x80 0xb5 0xa 0x46 0x1 0x46 0x20 0x20 0x2 0x23 0x0 0xf0 0x4f 0xf8 0x80 0xbd 0x80 0xb5 0xa 0x46 0x1 0x46 0x30 0x20 0x3 0x23 0x0 0xf0 0x47 0xf8 0x80 0xbd 0x80 0xb5 0x3 0x23 0x0 0xf0 0x42 0xf8 0x80 0xbd 0x0 0x0 0x10 0xb5 0x2 0x46 0x8a 0x43 0x82 0x42 0xd 0xd0 0x1 0x40 0x6 0x4c 0xb 0x46 0x23 0x40 0x6 0x48 0x1 0xd0 0x8b 0x1 0x3 0x40 0x8 0x40 0x1 0xd0 0x88 0x9 0x20 0x40 0x18 0x43 0x10 0x43 0x10 0xbd 0x3f 0xf0 0x3 0x0 0xc0 0xf 0xfc 0x0 0x80 0xb5 0xa 0x46 0x1 0x46 0x1 0x20 0x0 0x23 0x0 0xf0 0x21 0xf8 0x80 0xbd 0x80 0xb5 0xa 0x46 0x1 0x46 0x3 0x20 0x3 0x46 0x0 0xf0 0x19 0xf8 0x80 0xbd 0x80 0xb5 0xa 0x46 0x1 0x46 0x2 0x20 0x1 0x23 0x0 0xf0 0x11 0xf8 0x80 0xbd 0x80 0xb5 0xa 0x46 0x1 0x46 0x4 0x20 0x2 ] status=0x0
I2C Tx(0x41) toTx=200 [ 0xff 0x23 0x0 0xf0 0x9 0xf8 0x80 0xbd 0x80 0xb5 0xa 0x46 0x1 0x46 0x6 0x20 0x3 0x23 0x0 0xf0 0x1 0xf8 0x80 0xbd 0xff 0xb5 0x0 0x93 0x0 0x24 0x3 0x94 0x2 0x94 0x1 0x94 0xc5 0x7 0x23 0x4b 0x25 0x46 0x1 0xd0 0x1 0x93 0x1d 0x46 0x86 0x7 0x26 0x46 0x1 0xd5 0x2 0x93 0x1e 0x46 0x47 0x7 0x1 0xd5 0x3 0x93 0x1c 0x46 0x3 0x7 0x1c 0x4f 0x1 0xd5 0x3d 0x43 0x1 0x95 0xc3 0x6 0x1 0xd5 0x3e 0x43 0x2 0x96 0x80 0x6 0x1 0xd5 0x3c 0x43 0x3 0x94 0x0 0x20 0xf 0x46 0x2f 0x28 0xc 0xd8 0x13 0x68 0x2b 0x40 0x3b 0x60 0x53 0x68 0x33 0x40 0x7b 0x60 0x93 0x68 0x23 0x40 0xbb 0x60 0xc 0x32 0xc 0x37 0xc0 0x1c 0xf0 0xe7 0x0 0x9b 0x2 0x2b 0x15 0xd8 0x58 0x1e 0x42 0x1e 0x90 0x41 0x80 0x0 0x8 0x18 0x9a 0x0 0x89 0x18 0x1 0xab 0x9a 0x58 0x0 0x23 0x2f 0x2b 0x9 0xd8 0xc 0x68 0x94 0x42 0x2 0xd0 0x15 0x46 0xa5 0x43 0x5 0x60 0xc 0x31 0xc 0x30 0xdb 0x1c 0xf3 0xe7 0xff 0xbd 0xc0 0x46 0x55 0x55 0x55 0x55 0xaa 0xaa 0xaa 0xaa 0x70 0xb5 0xc 0x46 0x5 0x46 0x0 0x26 0x30 0x2e 0x8 0xd0 ] status=0x0
I2C Tx(0x41) toTx=200 [ 0xff 0x20 0x22 0x30 0x46 0x21 0x46 0x0 0xf0 0xb 0xf8 0xc0 0x43 0x1 0xc5 0x76 0x1c 0xf4 0xe7 0x30 0x20 0x18 0x22 0x21 0x46 0x0 0xf0 0x2 0xf8 0xc0 0x43 0x70 0xbd 0xf0 0xb5 0x86 0xb0 0x40 0x1 0x0 0x90 0x80 0x18 0x3 0x90 0x8 0x78 0x1 0x24 0x20 0x40 0x85 0x1d 0x0 0x26 0xf2 0x43 0x10 0x46 0xa8 0x40 0xc3 0x43 0x37 0x46 0x5 0x95 0x4 0x93 0x3 0x98 0x82 0x42 0x3a 0xda 0x1 0x97 0x2 0x92 0x0 0x22 0xf0 0xb2 0xf 0x5c 0xe0 0xb2 0xc7 0x40 0x64 0x19 0xe0 0xb2 0x8 0x28 0x11 0xd3 0x8 0x3c 0x76 0x1c 0xf0 0xb2 0x3f 0x28 0xc 0xd8 0x25 0x6 0x8 0xd0 0x8 0x5c 0xe5 0xb2 0x5 0x9b 0x5d 0x1b 0xa8 0x40 0x1d 0x46 0x4 0x9b 0xc7 0x19 0x1 0xe0 0x0 0x24 0x5 0x9d 0x1f 0x40 0xba 0x18 0x9f 0x42 0xe1 0xd0 0x50 0x1c 0x80 0xb2 0x2 0x9b 0xc3 0x18 0x0 0x27 0x3 0x98 0x83 0x42 0x2 0x97 0x1 0xdb 0x0 0x98 0x5 0xe0 0x0 0x9d 0x58 0x1b 0x1 0x27 0x87 0x40 0x28 0x46 0x5 0x9d 0x1a 0x46 0x83 0x42 0x0 0xda 0x2 0x9f 0x1 0x98 0x38 0x43 0x7 0x46 0x4 0x9b 0xc1 0xe7 0x38 0x46 0x6 0xb0 0xf0 0xbd 0x0 ] status=0x0
I2C Tx(0x41) toTx=200 [ 0xff 0x0 0x38 0x48 0x2 0x21 0x1 0x60 0x1 0x68 0x49 0x7 0xfc 0xd4 0x70 0x47 0xc0 0x46 0x10 0xb5 0x0 0x20 0x5 0x49 0x6 0x4a 0x6 0x4b 0x84 0xa 0x5 0xd1 0x0 0x24 0x44 0x50 0x84 0x50 0xc4 0x50 0x0 0x1d 0xf7 0xe7 0x10 0xbd 0x0 0x40 0xa 0x40 0x0 0x40 0x8 0x40 0x0 0x40 0x9 0x40 0xb0 0xb5 0x43 0x68 0x19 0x4a 0x13 0x40 0x19 0x49 0xb 0x61 0x43 0x68 0x1b 0x3 0x9b 0xd 0x4b 0x61 0x43 0x68 0x9b 0x0 0x9b 0xd 0x8b 0x61 0x43 0x68 0x9b 0xf 0x14 0x4c 0x23 0x60 0x83 0x68 0x13 0x40 0xcb 0x61 0x83 0x68 0x9b 0x4 0x1b 0xf 0xb 0x62 0x83 0x68 0x5c 0xb 0x70 0x25 0x2c 0x40 0xdb 0x3 0x5b 0xf 0x1b 0x19 0x4b 0x62 0x83 0x68 0xdc 0xc 0x2c 0x40 0x9b 0x2 0x9b 0xf 0x1b 0x19 0x8b 0x60 0x83 0x89 0x13 0x40 0x8b 0x62 0x2 0x68 0xa 0x60 0x82 0x89 0x92 0xa 0xc0 0x89 0x80 0x7 0x0 0xe 0x80 0x18 0xc8 0x60 0xb0 0xbd 0xc0 0x46 0xff 0x3 0x0 0x0 0x10 0x0 0x2 0x40 0x10 0x3 0x2 0x40 0x5 0x48 0x1 0x68 0xc2 0x68 0x1 0x23 0x3 0x60 0x3 0x23 0xc3 0x60 0x8 0x1 0x10 0x43 0xc0 0xb2 0x70 0x47 ] status=0x0
I2C Tx(0x41) toTx=200 [ 0xff 0xc0 0x46 0x0 0x0 0x2 0x40 0x5 0x49 0xa 0x69 0x4 0x23 0x9a 0x43 0xc0 0x7 0x40 0xf 0x10 0x18 0x8 0x61 0x1 0x20 0x8 0x60 0x70 0x47 0xc0 0x46 0x8 0x0 0x2 0x40 0xb0 0xb5 0x3 0x1 0x12 0x4c 0x1d 0x19 0xaa 0x60 0xe9 0x60 0x1 0x21 0x69 0x60 0x19 0x51 0x1f 0x22 0x2 0x40 0x91 0x40 0x1 0x48 0x1 0x60 0xb0 0xbd 0xc0 0x46 0x0 0xe1 0x0 0xe0 0x1f 0x21 0x1 0x40 0x1 0x22 0x8a 0x40 0x7 0x49 0xa 0x60 0xbf 0xf3 0x4f 0x8f 0xbf 0xf3 0x6f 0x8f 0x0 0x1 0x5 0x49 0x0 0x22 0x42 0x50 0x40 0x18 0x42 0x60 0xd1 0x43 0x81 0x60 0xc2 0x60 0x70 0x47 0x80 0xe1 0x0 0xe0 0x10 0x1 0x0 0x40 0xb0 0xb5 0x14 0x46 0x1 0x22 0x92 0x7 0x12 0x68 0x53 0x1e 0x9a 0x41 0x52 0x1 0x9 0x4b 0xd0 0x50 0xd5 0x18 0x69 0x60 0x28 0x46 0x8 0x30 0x1 0x68 0x0 0x29 0xfc 0xd0 0x88 0x7 0x1 0xd5 0xfd 0xf7 0xa5 0xf9 0x0 0x2c 0x1 0xd0 0x28 0x69 0x20 0x60 0xe8 0x68 0xb0 0xbd 0xc0 0x46 0x0 0x2 0x0 0x40 0xb0 0xb5 0x2e 0x49 0xa 0x68 0xb8 0x23 0x9a 0x43 0x3 0x88 0xdc 0x8 0x30 0x25 0x25 0x40 0x52 0x19 0x80 ] status=0x0
I2C Tx(0x41) toTx=200 [ 0xff 0x25 0x25 0x40 0x52 0x19 0x9b 0x9 0x8 0x24 0x9c 0x43 0x12 0x19 0xa 0x60 0x2 0x88 0x7f 0x23 0x13 0x40 0x4b 0x60 0x8 0x49 0xa 0x68 0x3f 0x23 0x9a 0x43 0x3 0x88 0xdb 0xa 0xf 0x24 0x1c 0x40 0x12 0x19 0x10 0x24 0x1c 0x40 0x12 0x19 0x40 0x88 0xc0 0x7 0x80 0xe 0x10 0x18 0x8 0x60 0xb0 0xbd 0x3c 0x0 0x2 0x40 0x10 0xb5 0x19 0x4c 0x21 0x69 0x80 0x22 0x91 0x43 0x21 0x61 0x21 0x68 0x4 0x22 0xa 0x43 0x2 0x21 0x8a 0x43 0x22 0x60 0x0 0x7a 0x0 0xf0 0x27 0xf8 0x0 0x20 0x20 0x60 0x10 0xbd 0xb0 0xb5 0x4 0x46 0xf 0x4d 0x28 0x68 0x29 0x69 0x80 0x22 0xa 0x43 0x2a 0x61 0x3 0x21 0x1 0x43 0x29 0x60 0x20 0x79 0x0 0xf0 0x16 0xf8 0xe8 0x68 0x81 0x7 0x1 0xd0 0xfe 0x25 0x7 0xe0 0x1 0x7 0x89 0xf 0x1 0xd0 0xfd 0x25 0x2 0xe0 0xc0 0x6 0x5 0xd4 0xff 0x25 0x20 0x46 0xff 0xf7 0xd0 0xff 0x68 0xb2 0xb0 0xbd 0x0 0x25 0xfb 0xe7 0x9c 0x3 0x1 0x40 0x7c 0xb5 0x1 0x90 0xc 0x49 0x9 0x68 0xc9 0x7 0x1 0xd0 0xa0 0x24 0x0 0xe0 0x5 0x24 0xa 0x4d 0xa8 0x42 0x6 0xd9 0x1 0xaa 0x29 0x46 ] status=0x0
I2C Tx(0x41) toTx=200 [ 0xff 0xff 0xf7 0x72 0xff 0x1 0x46 0x1 0x98 0x0 0xe0 0x0 0x21 0x4e 0x1c 0x21 0x46 0xed 0xf7 0x1c 0xf9 0x76 0x1e 0x28 0x46 0xf9 0xd1 0x7c 0xbd 0x8 0x0 0x0 0x40 0x99 0x99 0x99 0x1 0xf0 0xb5 0x93 0xb0 0xc 0x92 0x9 0x90 0x73 0x48 0xe 0x91 0x8 0x1a 0x41 0x1e 0x88 0x41 0x72 0x49 0x9 0x68 0x2 0x22 0xa 0x40 0x51 0x42 0xb 0x92 0x51 0x41 0x1 0x40 0x8 0x91 0x1 0xd1 0x6 0x20 0x0 0xe0 0x8 0x20 0x1 0x22 0x93 0x2 0xb 0x99 0x0 0x29 0x2 0x93 0x3 0x93 0x1 0xd0 0x11 0x2 0x3 0x91 0x5 0x92 0xc 0x99 0xc1 0x40 0xc 0x91 0xf1 0x20 0xc0 0x0 0x7 0x90 0x3 0x20 0x4 0x90 0xc0 0x43 0x6 0x90 0x9 0x98 0xc0 0x7 0x40 0xf 0x1 0x90 0x0 0x24 0xfd 0xf7 0xf 0xfc 0x7 0x46 0xe 0x9d 0xf 0x90 0xc 0x98 0x84 0x42 0x0 0xd1 0xb0 0xe0 0xe 0x98 0x59 0x49 0x88 0x42 0xd 0x94 0xe 0xd1 0x26 0x46 0x4 0x98 0x6 0x40 0x1 0x20 0x1 0x46 0xb1 0x40 0x12 0x91 0x54 0x49 0x89 0x6e 0x12 0x9a 0xa 0x42 0x4f 0xd0 0x1 0x98 0x6 0x43 0x5a 0xe0 0x66 0x0 0xb 0x98 0x0 0x28 0x10 0xd1 0x7 0x20 0x20 ] status=0x0
I2C Tx(0x41) toTx=200 [ 0xff 0x40 0x9 0x99 0xc9 0x0 0x56 0xa2 0x51 0x18 0x8 0x5c 0xf 0x21 0x8e 0x43 0x6 0x43 0x8 0x24 0xe 0x98 0x51 0x49 0x88 0x42 0x14 0xd1 0x20 0x36 0xf 0xe0 0xf 0x20 0x20 0x40 0x9 0x99 0x9 0x1 0x45 0xa2 0x51 0x18 0x8 0x5c 0x1f 0x21 0x8e 0x43 0x6 0x43 0x10 0x24 0xe 0x98 0x49 0x49 0x88 0x42 0x3 0xd1 0x80 0x36 0x5 0x9f 0xa 0x97 0x2 0xe0 0x0 0x20 0xa 0x90 0x5 0x9f 0x30 0x46 0x21 0x46 0xed 0xf7 0x9f 0xf8 0x12 0x90 0x60 0x1e 0x30 0x40 0x39 0x46 0x81 0x40 0x11 0x91 0x12 0x98 0x80 0x0 0x35 0x49 0x8 0x18 0x28 0x30 0x10 0x90 0xb 0x98 0x0 0x28 0xf 0x9f 0x15 0xd1 0x60 0x8 0x12 0x99 0xe 0x9a 0x3d 0x4b 0x9a 0x42 0x2 0xd1 0x81 0x42 0x2 0x99 0x35 0xd2 0x12 0x99 0x81 0x42 0x4 0xd3 0x0 0x20 0x3 0xe0 0x0 0x2 0x2d 0x18 0x2f 0xe0 0x1 0x20 0xa 0x99 0x1 0x42 0x2 0x99 0x28 0xd1 0x10 0x98 0x0 0x68 0x11 0x99 0x1 0x42 0x3 0x99 0x22 0xd0 0x40 0xc5 0x1f 0x23 0x33 0x40 0x98 0x1d 0x99 0x1c 0x8 0x9a 0x0 0x2a 0x1e 0xd0 0x7 0x9a 0xb2 0x18 0x6 0x9c 0x63 0x43 0x2c 0x4c 0xe3 0x18 ] status=0x0
I2C Tx(0x41) toTx=200 [ 0xff 0x1b 0x1f 0x0 0x24 0xff 0x2c 0x11 0xd0 0x64 0x1c 0xbc 0x42 0x9 0xd8 0x2a 0x60 0x8c 0x42 0x6 0xd3 0x84 0x42 0x4 0xd2 0x1e 0x68 0x2f 0x68 0xbe 0x19 0xf 0x9f 0x2e 0x60 0x52 0x1e 0x1b 0x1d 0x2d 0x1d 0xec 0xe7 0x6d 0x18 0xd 0x9c 0x64 0x1c 0x65 0xe7 0x7 0x9a 0xb2 0x18 0x6 0x9c 0x63 0x43 0x1c 0x4c 0xe3 0x18 0x1b 0x1f 0x1 0x24 0x40 0x2c 0xf2 0xd0 0xbc 0x42 0x9 0xd8 0x2a 0x60 0x8c 0x42 0x6 0xd3 0x84 0x42 0x4 0xd2 0x1e 0x68 0x2f 0x68 0xbe 0x19 0xf 0x9f 0x2e 0x60 0x52 0x1e 0x1b 0x1d 0x64 0x1c 0x2d 0x1d 0xec 0xe7 0x13 0xb0 0xf0 0xbd 0xc0 0x46 0x0 0x0 0xa 0x40 0x18 0x0 0x2 0x40 0x0 0x1 0x10 0x11 0x2 0x3 0x12 0x13 0x4 0x5 0x14 0x15 0x6 0x7 0x16 0x17 0xf 0xe 0x1f 0x1e 0xd 0xc 0x1d 0x1c 0xb 0xa 0x1b 0x1a 0x9 0x8 0x19 0x18 0x0 0x0 0x9 0x40 0x0 0x1 0x2 0x3 0x8 0x9 0xa 0xb 0x7 0x6 0x5 0x4 0xf 0xe 0xd 0xc 0x0 0x0 0x8 0x40 0xe4 0x30 0x1 0x0 0x10 0x32 0x0 0x0 0x21 0x43 0x0 0x0 0x65 0x37 0x0 0x0 0x1 0x32 0x0 0x0 0x0 0xff 0x18 0x0 0xff ] status=0x0
I2C Tx(0x41) toTx=128 [ 0xff 0x10 0x0 0xff 0x1d 0x0 0xff 0x15 0x0 0xff 0x1e 0x0 0xff 0xff 0xff 0xff 0xff 0xff 0xff 0xff 0xff 0xff 0xff 0xff 0xff 0xff 0xff 0xff 0xff 0xff 0xff 0xff 0xff 0xff 0xff 0xff 0xff 0xff 0xff 0xff 0xff 0xff 0xff 0xff 0xf 0xff 0xff 0xff 0xff 0xff 0xff 0xff 0xff 0xff 0xff 0xff 0xff 0xff 0xff 0xff 0xff 0xff 0xff 0xff 0xff 0xff 0xff 0xff 0xff 0xff 0xff 0xff 0xff 0xff 0xff 0xff 0xff 0xff 0xff 0xff 0xff 0xff 0xff 0xff 0xff 0xff 0xff 0xff 0xff 0xff 0xff 0xff 0xff 0xff 0xff 0xff 0xff 0xff 0xff 0xff 0xff 0xff 0xff 0xff 0xff 0xff 0xff 0xff 0xff 0x64 0x1e 0xa 0xa 0xf 0x1 0x5 0xa 0x2 0x0 0x0 0x0 0x0 0x0 0x0 0x0 0x1c 0x1 0x1 ] status=0x0
I2C Tx(0x41) toTx=2 [ 0x8 0x16 ] status=0x0
I2C Tx(0x41) toTx=1 [ 0x0 ] status=0x0
I2C Rx(0x41) toRx=1 rxed=1 [ 0x1 ] status=0x0
I2C Tx(0x41) toTx=2 [ 0x8 0x16 ] status=0x0
I2C Tx(0x41) toTx=1 [ 0x8 ] status=0x0
I2C Rx(0x41) toRx=1 rxed=1 [ 0x0 ] status=0x0
I2C Tx(0x41) toTx=1 [ 0x20 ] status=0x0
I2C Rx(0x41) toRx=1 rxed=1 [ 0x16 ] status=0x0
I2C Tx(0x41) toTx=1 [ 0x22 ] status=0x0
I2C Rx(0x41) toRx=94 rxed=94 [ 0x21 0x0 0xb8 0x1 0x2 0x3f 0x2 0x0 0x1 0x0 0x0 0x1 0x0 0x0 0x9 0x0 0x3 0x50 0x0 0x0 0x38 0x1 0x0 0x0 0x0 0x0 0x0 0x0 0x0 0x0 0x0 0x1 0x2 0x2 0x0 0x0 0x50 0x0 0x0 0x0 0x0 0x0 0x0 0x0 0x0 0x0 0x2 0x2 0x0 0x6 0x0 0x0 0x0 0x0 0x0 0x0 0x0 0x0 0x0 0x0 0x0 0x0 0x0 0x0 0x0 0x0 0x0 0x0 0x0 0x0 0x0 0x0 0xff 0xff 0x0 0x0 0x0 0x0 0x0 0x0 0x0 0x0 0x0 0x0 0x0 0x0 0x0 0x0 0x0 0x0 0x0 0x0 0x0 0x0 ] status=0x0
I2C Tx(0x41) toTx=1 [ 0xe3 ] status=0x0
I2C Rx(0x41) toRx=2 rxed=2 [ 0x9e 0x0 ] status=0x0
I2C Tx(0x41) toTx=1 [ 0x0 ] status=0x0
I2C Rx(0x41) toRx=4 rxed=4 [ 0x1 0x1 0x1c 0x0 ] status=0x0
I2C Tx(0x41) toTx=1 [ 0x1c ] status=0x0
I2C Rx(0x41) toRx=4 rxed=4 [ 0x53 0x5b 0xe9 0x66 ] status=0x0
I2C Tx(0x41) toTx=2 [ 0x8 0x16 ] status=0x0
I2C Tx(0x41) toTx=1 [ 0x8 ] status=0x0
I2C Rx(0x41) toRx=1 rxed=1 [ 0x0 ] status=0x0
I2C Tx(0x41) toTx=1 [ 0x20 ] status=0x0
I2C Rx(0x41) toRx=1 rxed=1 [ 0x16 ] status=0x0
I2C Tx(0x41) toTx=2 [ 0x29 0x3c ] status=0x0
I2C Tx(0x41) toTx=2 [ 0x30 0x6 ] status=0x0
I2C Tx(0x41) toTx=2 [ 0x33 0x32 ] status=0x0
I2C Tx(0x41) toTx=2 [ 0x34 0x2 ] status=0x0
I2C Tx(0x41) toTx=2 [ 0x52 0x1 ] status=0x0
I2C Tx(0x41) toTx=2 [ 0x8 0x15 ] status=0x0
I2C Tx(0x41) toTx=1 [ 0x8 ] status=0x0
I2C Rx(0x41) toRx=1 rxed=1 [ 0x0 ] status=0x0
I2C Tx(0x41) toTx=2 [ 0x8 0x17 ] status=0x0
I2C Tx(0x41) toTx=1 [ 0x8 ] status=0x0
I2C Rx(0x41) toRx=1 rxed=1 [ 0x0 ] status=0x0
I2C Tx(0x41) toTx=1 [ 0x20 ] status=0x0
I2C Rx(0x41) toRx=1 rxed=1 [ 0x17 ] status=0x0
I2C Tx(0x41) toTx=2 [ 0x27 0x0 ] status=0x0
I2C Tx(0x41) toTx=2 [ 0x33 0x0 ] status=0x0
I2C Tx(0x41) toTx=2 [ 0x8 0x15 ] status=0x0
I2C Tx(0x41) toTx=1 [ 0x8 ] status=0x0
I2C Rx(0x41) toRx=1 rxed=1 [ 0x0 ] status=0x0
GPIO write mask=0x2, data=0x0, data&mask=0x0
GPIO write mask=0x2, data=0x2, data&mask=0x2
I2C Tx(0x41) toTx=2 [ 0xf8 0x4 ] status=0x0
I2C Tx(0x41) toTx=1 [ 0xf8 ] status=0x0
I2C Rx(0x41) toRx=1 rxed=1 [ 0x84 ] status=0x0
I2C Tx(0x41) toTx=9 [ 0x8 0x45 0x6 0x0 0x0 0x1 0x0 0x5e 0xc ] status=0x0
I2C Tx(0x41) toTx=1 [ 0x8 ] status=0x0
I2C Rx(0x41) toRx=1 rxed=1 [ 0x0 ] status=0x0
I2C Tx(0x41) toTx=200 [ 0xff 0x0 0xc0 0x1 0x0 0xc1 0x0 0x1 0x0 0xe9 0x0 0x1 0x0 0xed 0x0 0x1 0x0 0xf1 0x0 0x1 0x0 0xf5 0x0 0x1 0x0 0xf9 0x0 0x1 0x0 0xfd 0x0 0x1 0x0 0x1 0x1 0x1 0x0 0x0 0x0 0x0 0x0 0x0 0x0 0x0 0x0 0x5 0x1 0x1 0x0 0x9 0x1 0x1 0x0 0x0 0x0 0x0 0x0 0xd 0x1 0x1 0x0 0x11 0x1 0x1 0x0 0xe7 0x0 0x1 0x0 0xe7 0x0 0x1 0x0 0xe7 0x0 0x1 0x0 0xe9 0x2 0x1 0x0 0x99 0x2 0x1 0x0 0x5d 0x2 0x1 0x0 0xe7 0x0 0x1 0x0 0x95 0x2 0x1 0x0 0x97 0x2 0x1 0x0 0xe7 0x0 0x1 0x0 0xad 0x2 0x1 0x0 0xe7 0x0 0x1 0x0 0xe7 0x0 0x1 0x0 0xe7 0x0 0x1 0x0 0xe7 0x0 0x1 0x0 0xe7 0x0 0x1 0x0 0xe7 0x0 0x1 0x0 0xe7 0x0 0x1 0x0 0xc5 0x2 0x1 0x0 0x21 0x2 0x1 0x0 0x21 0x2 0x1 0x0 0x21 0x2 0x1 0x0 0xc9 0x1 0x1 0x0 0x5 0x2 0x1 0x0 0x74 0x31 0x1 0x0 0x3 0x48 0x85 0x46 0x0 0xf0 0x4c 0xf8 0x0 0x48 0x0 0x47 0x1 0x3 0x1 0x0 0x0 0xc0 0x1 0x0 0x0 0x0 0x0 0x0 0x0 0x0 0x0 0x0 0x72 0xb6 0x14 0x48 0x14 0x49 0x1 ] status=0x0
I2C Tx(0x41) toTx=200 [ 0xff 0x60 0x0 0xf0 0x2 0xf8 0xff 0xf7 0xea 0xff 0x2 0x46 0x11 0x60 0x12 0x1d 0x95 0x45 0xfb 0xd1 0x70 0x47 0x6b 0x46 0xf0 0xb4 0x69 0x46 0xe 0x4a 0x10 0x47 0xfe 0xe7 0xf2 0x20 0xf7 0xe7 0xf3 0x20 0xf5 0xe7 0xf4 0x20 0xf3 0xe7 0xf5 0x20 0xf1 0xe7 0xf6 0x20 0xef 0xe7 0xf7 0x20 0xed 0xe7 0xf8 0x20 0xeb 0xe7 0xfb 0x20 0xe9 0xe7 0xfc 0x20 0xe7 0xe7 0xfe 0x20 0xe5 0xe7 0xff 0x20 0xe3 0xe7 0x0 0xbc 0x1 0x0 0xed 0xa5 0xce 0xde 0xd 0xc 0x0 0x0 0x3 0x46 0xb 0x43 0x9b 0x7 0x3 0xd0 0x9 0xe0 0x8 0xc9 0x12 0x1f 0x8 0xc0 0x4 0x2a 0xfa 0xd2 0x3 0xe0 0xb 0x78 0x3 0x70 0x40 0x1c 0x49 0x1c 0x52 0x1e 0xf9 0xd2 0x70 0x47 0x1c 0xb5 0x9 0x48 0x0 0x90 0x9 0x48 0x1 0x90 0x5 0x46 0x1 0x26 0x0 0x9c 0x5 0xe0 0xe3 0x68 0x7 0xcc 0x33 0x43 0xc 0x3c 0x98 0x47 0x10 0x34 0xac 0x42 0xf7 0xd3 0xff 0xf7 0xa1 0xff 0x0 0x0 0x78 0x31 0x1 0x0 0x78 0x31 0x1 0x0 0xf8 0xb5 0x5 0x46 0xe 0x48 0x0 0x68 0xc0 0x5 0x2c 0x46 0x3 0xd4 0x1c 0x20 0x0 0x78 0xc0 0x7 0xf 0xd1 0x1 0x26 0x32 0x2 ] status=0x0
I2C Tx(0x41) toTx=200 [ 0xff 0x35 0x40 0x9 0x49 0xa 0x4f 0x28 0x46 0xb8 0x47 0x36 0x3 0x9 0x49 0x28 0x46 0x32 0x46 0xb8 0x47 0x8 0x49 0x28 0x46 0x32 0x46 0xb8 0x47 0x20 0x46 0x2 0xf0 0xb6 0xfd 0xf8 0xbd 0xc0 0x46 0x28 0x0 0x0 0x40 0x0 0x0 0xa 0x40 0xc9 0x2e 0x1 0x0 0x0 0x0 0x8 0x40 0x0 0x0 0x9 0x40 0x70 0xb5 0xbf 0x4c 0x20 0x68 0x80 0x7 0x14 0xd5 0xb 0x4d 0xdd 0x4e 0x70 0x5d 0x1 0xf0 0xaa 0xf9 0x2 0x21 0x21 0x60 0x62 0x68 0x8a 0x43 0x62 0x60 0x71 0x55 0xa1 0x68 0xa1 0x60 0x0 0x21 0x1 0x70 0x3 0x20 0xe0 0x60 0x1 0x20 0x0 0x4 0x2 0xf0 0xba 0xfa 0x70 0xbd 0xc0 0x46 0x99 0x66 0x0 0x0 0x80 0xb5 0x5 0x48 0x1 0x68 0x1 0x60 0x0 0x29 0x3 0xd0 0x0 0x21 0x41 0x60 0x1 0xf0 0xc4 0xfd 0x80 0xbd 0xc0 0x46 0x8 0x4 0x0 0x40 0x10 0xb5 0xb 0x48 0x1 0x68 0xca 0x43 0x42 0x60 0x7 0x29 0xf 0xd1 0x9 0x49 0xc6 0x4a 0x51 0x5c 0x8 0x4b 0xd1 0x54 0x12 0x68 0xd1 0x54 0x7 0x21 0x1 0x60 0x40 0x24 0x20 0x46 0x2 0xf0 0x94 0xfa 0x20 0x46 0x2 0xf0 0x99 0xfa 0x10 0xbd 0x0 0x1 0x2 0x40 0x29 ] status=0x0
I2C Tx(0x41) toTx=200 [ 0xff 0x62 0x0 0x0 0x2a 0x62 0x0 0x0 0xe0 0xb5 0xb 0x48 0x1 0x68 0x89 0x7 0xf 0xd5 0x2 0x21 0x1 0x60 0x68 0x46 0xf0 0xf7 0x7c 0xfa 0x0 0x98 0x0 0x7a 0xff 0x28 0x4 0xd0 0x5 0x48 0xb4 0x49 0x1 0x22 0xa 0x54 0x1 0xe0 0x1 0xf0 0x4f 0xff 0x40 0xbf 0x8c 0xbd 0xc0 0x46 0x30 0x11 0x1 0x40 0x90 0x63 0x0 0x0 0x70 0x47 0x70 0x47 0x3 0x48 0x10 0x21 0x1 0x60 0xbf 0xf3 0x4f 0x8f 0xbf 0xf3 0x6f 0x8f 0x70 0x47 0x80 0xe1 0x0 0xe0 0x80 0xb5 0x4 0x48 0x1 0x68 0xca 0x7 0x3 0xd0 0x1 0x60 0x10 0x20 0x2 0xf0 0x61 0xfa 0x80 0xbd 0x54 0x1 0x0 0x40 0x10 0xb5 0xa2 0x48 0xea 0x4c 0x20 0x18 0x2 0xf0 0xa6 0xfd 0x2 0xf0 0x16 0xfd 0x3 0x49 0x62 0x5c 0x2 0x43 0x62 0x54 0x20 0x20 0x2 0xf0 0x4f 0xfa 0x10 0xbd 0x92 0x63 0x0 0x0 0x80 0xb5 0x3 0x20 0x2 0xf0 0x36 0xfd 0x1 0xf0 0x80 0xf8 0x1 0x46 0x10 0x20 0x1 0xf0 0xb4 0xff 0x80 0xbd 0x0 0x0 0x72 0xb6 0x1c 0x48 0xdb 0x4d 0x1c 0x49 0x29 0x50 0xdd 0x48 0x1b 0x49 0x29 0x50 0x1b 0x48 0x1c 0x49 0x29 0x50 0x1c 0x4e 0x1c 0x48 0xa8 0x51 ] status=0x0
I2C Tx(0x41) toTx=200 [ 0xff 0x1 0x20 0x1 0x6 0x69 0x18 0x29 0x60 0xc4 0x7 0x80 0x7 0x0 0x68 0x0 0x28 0x9 0xd0 0x2 0xf0 0xf 0xfa 0x0 0x28 0xfb 0xd5 0x1 0xf0 0x81 0xfb 0x20 0x46 0x2 0xf0 0xf8 0xf9 0x12 0xe0 0x1 0xf0 0x79 0xfa 0x20 0x46 0x2 0xf0 0x12 0xfa 0x6 0x20 0x1 0x21 0xf0 0xf7 0xec 0xfa 0x2 0xf0 0x4 0xfa 0x0 0x28 0xfb 0xd4 0x1 0x20 0x1c 0x22 0x0 0x23 0x1 0x46 0xf0 0xf7 0x28 0xfa 0xa8 0x59 0x80 0x47 0x62 0xb6 0x1 0xf0 0x89 0xf8 0xfc 0xe7 0x40 0x62 0x0 0x0 0x61 0x9 0x1 0x0 0x29 0x8 0x1 0x0 0x38 0x62 0x0 0x0 0x8d 0x6 0x1 0x0 0x34 0x62 0x0 0x0 0x45 0x7 0x1 0x0 0xb0 0xb5 0xf 0x4a 0x3 0x23 0x13 0x60 0x0 0x7 0x0 0xd 0xd 0x4b 0xc0 0x18 0xd 0x4c 0x20 0x60 0xd 0x48 0x5 0x68 0x2 0x23 0x1d 0x43 0x5 0x60 0x61 0x60 0x1 0x21 0xa1 0x60 0xa1 0x68 0x0 0x29 0xfc 0xd1 0xe1 0x68 0x3f 0x25 0x25 0x60 0x0 0x24 0x14 0x60 0x2 0x68 0x9a 0x43 0x2 0x60 0x88 0xb2 0xb0 0xbd 0xc0 0x46 0x44 0x0 0x0 0x40 0x3f 0x0 0x3 0x0 0x0 0x0 0x5 0x40 0x98 0x3 0x1 0x40 0xb0 0xb5 0x39 ] status=0x0
I2C Tx(0x41) toTx=200 [ 0xff 0x4c 0x0 0x2b 0xa 0xd0 0x4 0x9d 0x20 0x61 0x62 0x61 0x5a 0x1e 0xa2 0x61 0x0 0x29 0x7 0xd0 0x21 0x20 0x5 0x43 0x29 0x46 0x9 0xe0 0x1 0x20 0x20 0x60 0x0 0x20 0xb0 0xbd 0xc0 0x1 0x1 0xd5 0x11 0x21 0x0 0xe0 0x1 0x21 0x29 0x43 0x1 0x20 0x20 0x60 0xe1 0x61 0xb0 0xbd 0xc0 0x46 0x2a 0x4a 0x0 0x29 0x9 0xd0 0x0 0x23 0x13 0x61 0x50 0x61 0x48 0x1e 0x90 0x61 0x1 0x20 0x10 0x60 0x49 0x21 0xd1 0x61 0x70 0x47 0x1 0x20 0x10 0x60 0x0 0x20 0x70 0x47 0xc0 0x46 0x21 0x48 0x2 0x21 0xc1 0x61 0xc1 0x69 0x49 0x7 0xfc 0xd4 0x1 0x21 0x1 0x60 0x70 0x47 0xc0 0x46 0x1c 0xb5 0x13 0x46 0xc 0x46 0x2 0x46 0x8 0x20 0x0 0x90 0x0 0x21 0x20 0x46 0xff 0xf7 0xbc 0xff 0x1c 0xbd 0x0 0x0 0x10 0xb5 0x3 0x48 0x4 0x68 0x0 0xf0 0x5 0xf8 0x0 0x1b 0x80 0xb2 0x10 0xbd 0x30 0x4 0x0 0x40 0x3 0x48 0x0 0x68 0x3 0x21 0x1 0x40 0x1 0x20 0x80 0x2 0x88 0x40 0x70 0x47 0x28 0x4 0x0 0x40 0x1 0x49 0x8 0x60 0x70 0x47 0xc0 0x46 0x34 0x4 0x0 0x40 0x9 0x4a 0x0 0x29 0x6 0xd0 0x10 0x62 0x49 0x1e ] status=0x0
I2C Tx(0x41) toTx=200 [ 0xff 0x51 0x62 0xc0 0x1 0x3 0xd5 0x11 0x20 0x2 0xe0 0x0 0x20 0x0 0xe0 0x1 0x20 0x2 0x21 0x11 0x60 0xd0 0x62 0x41 0x1e 0x88 0x41 0x70 0x47 0xc0 0x46 0x0 0x4 0x0 0x40 0xf8 0xb5 0x2 0x20 0xc6 0x43 0xa7 0x4d 0x1e 0x4c 0x0 0x2e 0x7 0xd0 0xf0 0x1c 0xaf 0x19 0xc0 0xb2 0x2 0xf0 0xb4 0xf8 0x38 0x55 0x76 0x1c 0xf5 0xe7 0x1a 0x48 0x28 0x56 0x1a 0x4f 0xe9 0x5d 0x69 0x18 0x19 0x4e 0x89 0x57 0x88 0x42 0x1 0xdc 0x8 0x1a 0x0 0xe0 0x40 0x1a 0x17 0x49 0x69 0x5c 0x88 0x42 0xe 0xdb 0x16 0x48 0x28 0x18 0x16 0x49 0x69 0x18 0x2a 0x19 0x1 0xf0 0x8 0xff 0x0 0x28 0x5 0xd4 0x4 0x46 0x2 0xf0 0x17 0xf9 0x5 0x21 0x8 0x42 0x0 0xd0 0xf8 0xbd 0x10 0x48 0x2c 0x54 0xe8 0x5d 0x28 0x18 0x80 0x5d 0x7 0x49 0x68 0x54 0xd 0x48 0x28 0x5c 0x3 0x21 0x1 0x40 0x2 0x29 0xf1 0xd1 0xb 0x48 0x2c 0x54 0xf8 0xbd 0xc0 0x46 0x78 0x31 0x1 0x0 0x96 0x63 0x0 0x0 0x4c 0x63 0x0 0x0 0x4f 0x63 0x0 0x0 0x93 0x63 0x0 0x0 0x4d 0x63 0x0 0x0 0x48 0x63 0x0 0x0 0x91 0x63 0x0 0x0 0x31 0x63 0x0 0x0 0x4a ] status=0x0
I2C Tx(0x41) toTx=200 [ 0xff 0x63 0x0 0x0 0x49 0x63 0x0 0x0 0xf0 0xb5 0x8b 0xb0 0xf3 0x48 0xf1 0x4f 0x3e 0x5c 0x30 0x46 0x1 0xf0 0x4b 0xfb 0x5 0x46 0x3b 0x48 0x39 0x56 0x30 0x46 0x1 0xf0 0x7a 0xfa 0x4 0x46 0x39 0x48 0x3a 0x5a 0x7 0x46 0x69 0x8 0xa2 0x42 0x3 0xd2 0x1 0x2e 0x3 0xd8 0xf 0x20 0x2 0xe0 0xe6 0x4d 0x44 0xe0 0x3f 0x20 0x10 0x40 0x3 0x90 0x1 0x20 0x1 0x90 0x80 0x7 0x2 0x90 0x0 0x68 0x0 0x28 0x4 0x91 0x13 0xd0 0x3f 0x20 0xc0 0x43 0x1 0x2e 0x0 0xd8 0x30 0x30 0x46 0x18 0x1 0x2a 0x3 0xd1 0x1 0xf0 0xb2 0xfc 0xda 0x48 0xc2 0x5b 0xb0 0xb2 0x40 0x1c 0x90 0x42 0x3 0xd1 0x1 0xf0 0x40 0xfc 0xd6 0x48 0xc2 0x5b 0xd5 0x4d 0x22 0x48 0x29 0x56 0xd6 0x48 0x28 0x5c 0x0 0xf0 0x4a 0xf8 0x6 0x46 0x20 0x48 0x2b 0x58 0x5 0xaf 0x3 0x98 0x39 0x46 0x32 0x46 0x98 0x47 0x1e 0x48 0x28 0x18 0x1e 0x49 0x69 0x5c 0x2 0x9a 0x12 0x68 0x8a 0x42 0x2 0xd0 0x1 0x99 0x9 0x6 0x8 0x43 0x10 0x30 0xc7 0x49 0x6b 0x5c 0x39 0x46 0x32 0x46 0x0 0xf0 0x47 0xff 0x13 0x4f 0xe8 0x5b 0x42 0x1c 0xea 0x53 0x4 0x99 ] status=0x0
I2C Tx(0x41) toTx=200 [ 0xff 0x0 0x2c 0xc 0xd0 0x90 0xb2 0xa0 0x42 0x9 0xd1 0x1 0x24 0xa0 0x3 0xe 0x46 0x2 0xf0 0x92 0xf8 0xe0 0x2 0x2 0xf0 0x6f 0xf8 0x31 0x46 0xea 0x5b 0x90 0xb2 0x88 0x42 0x8 0xd3 0x1 0x24 0x20 0x3 0x2 0xf0 0x66 0xf8 0x60 0x2 0x2 0xf0 0x83 0xf8 0x0 0x20 0xe8 0x53 0xb 0xb0 0xf0 0xbd 0xc0 0x46 0x78 0x31 0x1 0x0 0x2a 0x62 0x0 0x0 0x26 0x62 0x0 0x0 0x3c 0x62 0x0 0x0 0x4 0x44 0x0 0x0 0x28 0x62 0x0 0x0 0x70 0x47 0xb0 0xb5 0x0 0x29 0x12 0xd4 0xcc 0xb2 0x1 0x23 0x99 0x7 0x1 0x28 0xf 0xd8 0x3 0x20 0x10 0x40 0x52 0x0 0x18 0x23 0x13 0x40 0x18 0x18 0x0 0x2c 0x0 0xd0 0x0 0x1d 0x9 0x68 0x0 0x29 0x13 0xd0 0x20 0x30 0xb0 0xbd 0x0 0x20 0xb0 0xbd 0x5 0x28 0xe 0xd0 0x2 0x28 0x2a 0xd1 0x7 0x20 0x10 0x40 0x52 0x0 0x70 0x23 0x13 0x40 0x18 0x18 0x0 0x2c 0x0 0xd0 0x8 0x30 0x9 0x68 0x0 0x29 0x1c 0xd1 0xb0 0xbd 0x7 0x20 0x10 0x40 0x3 0x25 0x45 0x43 0x38 0x20 0x10 0x40 0x6 0x22 0x42 0x43 0x50 0x19 0x9 0x2c 0x24 0xd8 0x1a 0x46 0xa2 0x40 0xc3 0x25 0x2a 0x42 0x3 ] status=0x0
